#! /usr/bin/vvp
:ivl_version "12.0 (stable)";
:ivl_delay_selection "TYPICAL";
:vpi_time_precision - 12;
:vpi_module "/usr/lib/x86_64-linux-gnu/ivl/system.vpi";
:vpi_module "/usr/lib/x86_64-linux-gnu/ivl/vhdl_sys.vpi";
:vpi_module "/usr/lib/x86_64-linux-gnu/ivl/vhdl_textio.vpi";
:vpi_module "/usr/lib/x86_64-linux-gnu/ivl/v2005_math.vpi";
:vpi_module "/usr/lib/x86_64-linux-gnu/ivl/va_math.vpi";
:vpi_module "/usr/lib/x86_64-linux-gnu/ivl/v2009.vpi";
S_0x57a607c3b300 .scope package, "$unit" "$unit" 2 1;
 .timescale 0 0;
S_0x57a607c0b920 .scope module, "tb_top" "tb_top" 3 3;
 .timescale -9 -12;
P_0x57a607cbbdc0 .param/l "ADDR_WIDTH" 0 3 5, +C4<00000000000000000000000000100000>;
P_0x57a607cbbe00 .param/l "DATA_WIDTH" 0 3 6, +C4<00000000000000000000000000100000>;
v0x57a607c9e930_0 .var "aclk", 0 0;
v0x57a607d1e170_0 .net "araddr", 31 0, v0x57a607d18ff0_0;  1 drivers
v0x57a607d1e230_0 .var "aresetn", 0 0;
v0x57a607d1e2d0_0 .net "arready", 0 0, L_0x57a607d1f570;  1 drivers
v0x57a607d1e370_0 .net "arvalid", 0 0, v0x57a607d191f0_0;  1 drivers
v0x57a607d1e410_0 .net "awaddr", 31 0, v0x57a607d192e0_0;  1 drivers
v0x57a607d1e4b0_0 .net "awready", 0 0, L_0x57a607ca29a0;  1 drivers
v0x57a607d1e550_0 .net "awvalid", 0 0, v0x57a607d19420_0;  1 drivers
v0x57a607d1e5f0_0 .net "bready", 0 0, v0x57a607d194c0_0;  1 drivers
v0x57a607d1e690_0 .net "bresp", 1 0, v0x57a607d14790_0;  1 drivers
v0x57a607d1e750_0 .net "bvalid", 0 0, v0x57a607d14860_0;  1 drivers
v0x57a607d1e7f0_0 .var/i "ext_fail", 31 0;
v0x57a607d1e8d0_0 .var/i "ext_pass", 31 0;
v0x57a607d1e9b0_0 .net "rdata", 31 0, v0x57a607d14930_0;  1 drivers
v0x57a607d1ea70_0 .var "read_data", 31 0;
v0x57a607d1eb50_0 .net "rready", 0 0, v0x57a607d19940_0;  1 drivers
v0x57a607d1ebf0_0 .net "rresp", 1 0, v0x57a607d14ad0_0;  1 drivers
v0x57a607d1edc0_0 .net "rvalid", 0 0, v0x57a607d14ba0_0;  1 drivers
v0x57a607d1ee60_0 .net "wdata", 31 0, v0x57a607d19c50_0;  1 drivers
v0x57a607d1ef20_0 .net "wready", 0 0, L_0x57a607c9f020;  1 drivers
v0x57a607d1efc0_0 .net "wstrb", 3 0, v0x57a607d19db0_0;  1 drivers
v0x57a607d1f080_0 .net "wvalid", 0 0, v0x57a607d19e70_0;  1 drivers
E_0x57a607c53b40 .event anyedge, v0x57a607c1d950_0;
S_0x57a607c0bb50 .scope module, "coverage" "axi4_lite_coverage" 3 233, 4 1 0, S_0x57a607c0b920;
 .timescale 0 0;
    .port_info 0 /INPUT 1 "aclk";
    .port_info 1 /INPUT 1 "aresetn";
    .port_info 2 /INPUT 32 "awaddr";
    .port_info 3 /INPUT 1 "awvalid";
    .port_info 4 /INPUT 1 "awready";
    .port_info 5 /INPUT 32 "wdata";
    .port_info 6 /INPUT 4 "wstrb";
    .port_info 7 /INPUT 1 "wvalid";
    .port_info 8 /INPUT 1 "wready";
    .port_info 9 /INPUT 2 "bresp";
    .port_info 10 /INPUT 1 "bvalid";
    .port_info 11 /INPUT 1 "bready";
    .port_info 12 /INPUT 32 "araddr";
    .port_info 13 /INPUT 1 "arvalid";
    .port_info 14 /INPUT 1 "arready";
    .port_info 15 /INPUT 32 "rdata";
    .port_info 16 /INPUT 2 "rresp";
    .port_info 17 /INPUT 1 "rvalid";
    .port_info 18 /INPUT 1 "rready";
P_0x57a607ca02b0 .param/l "ADDR_WIDTH" 0 4 2, +C4<00000000000000000000000000100000>;
P_0x57a607ca02f0 .param/l "DATA_WIDTH" 0 4 3, +C4<00000000000000000000000000100000>;
v0x57a607bbc330_0 .net "aclk", 0 0, v0x57a607c9e930_0;  1 drivers
v0x57a607c28000_0 .net "araddr", 31 0, v0x57a607d18ff0_0;  alias, 1 drivers
v0x57a607c1d950_0 .net "aresetn", 0 0, v0x57a607d1e230_0;  1 drivers
v0x57a607bbcd20_0 .net "arready", 0 0, L_0x57a607d1f570;  alias, 1 drivers
v0x57a607c3fe10_0 .net "arvalid", 0 0, v0x57a607d191f0_0;  alias, 1 drivers
v0x57a607c52560_0 .net "awaddr", 31 0, v0x57a607d192e0_0;  alias, 1 drivers
v0x57a607d110a0_0 .net "awready", 0 0, L_0x57a607ca29a0;  alias, 1 drivers
v0x57a607d11160_0 .net "awvalid", 0 0, v0x57a607d19420_0;  alias, 1 drivers
v0x57a607d11220_0 .net "bready", 0 0, v0x57a607d194c0_0;  alias, 1 drivers
v0x57a607d112e0_0 .net "bresp", 1 0, v0x57a607d14790_0;  alias, 1 drivers
v0x57a607d113c0_0 .var/i "bresp_okay_count", 31 0;
v0x57a607d114a0_0 .var/i "bresp_slverr_count", 31 0;
v0x57a607d11580_0 .net "bvalid", 0 0, v0x57a607d14860_0;  alias, 1 drivers
v0x57a607d11640_0 .var/real "coverage_percentage", 0 0;
v0x57a607d11700_0 .var/i "covered_items", 31 0;
v0x57a607d117e0_0 .net "rdata", 31 0, v0x57a607d14930_0;  alias, 1 drivers
v0x57a607d118c0_0 .var/i "read_invalid_count", 31 0;
v0x57a607d119a0_0 .var/i "read_reg0_count", 31 0;
v0x57a607d11a80_0 .var/i "read_reg1_count", 31 0;
v0x57a607d11b60_0 .var/i "read_reg2_count", 31 0;
v0x57a607d11c40_0 .var/i "read_reg3_count", 31 0;
v0x57a607d11d20_0 .net "rready", 0 0, v0x57a607d19940_0;  alias, 1 drivers
v0x57a607d11de0_0 .net "rresp", 1 0, v0x57a607d14ad0_0;  alias, 1 drivers
v0x57a607d11ec0_0 .var/i "rresp_okay_count", 31 0;
v0x57a607d11fa0_0 .var/i "rresp_slverr_count", 31 0;
v0x57a607d12080_0 .net "rvalid", 0 0, v0x57a607d14ba0_0;  alias, 1 drivers
v0x57a607d12140_0 .var/i "total_items", 31 0;
v0x57a607d12220_0 .net "wdata", 31 0, v0x57a607d19c50_0;  alias, 1 drivers
v0x57a607d12300_0 .net "wready", 0 0, L_0x57a607c9f020;  alias, 1 drivers
v0x57a607d123c0_0 .var/i "write_invalid_count", 31 0;
v0x57a607d124a0_0 .var/i "write_reg0_count", 31 0;
v0x57a607d12580_0 .var/i "write_reg1_count", 31 0;
v0x57a607d12660_0 .var/i "write_reg2_count", 31 0;
v0x57a607d12740_0 .var/i "write_reg3_count", 31 0;
v0x57a607d12820_0 .net "wstrb", 3 0, v0x57a607d19db0_0;  alias, 1 drivers
v0x57a607d12900_0 .var/i "wstrb_0000_count", 31 0;
v0x57a607d129e0_0 .var/i "wstrb_0001_count", 31 0;
v0x57a607d12ac0_0 .var/i "wstrb_0010_count", 31 0;
v0x57a607d12ba0_0 .var/i "wstrb_0100_count", 31 0;
v0x57a607d12c80_0 .var/i "wstrb_1000_count", 31 0;
v0x57a607d12d60_0 .var/i "wstrb_1111_count", 31 0;
v0x57a607d12e40_0 .var/i "wstrb_partial_count", 31 0;
v0x57a607d12f20_0 .net "wvalid", 0 0, v0x57a607d19e70_0;  alias, 1 drivers
E_0x57a607c544f0 .event posedge, v0x57a607bbc330_0;
S_0x57a607d132e0 .scope module, "dut" "axi4_lite_slave" 3 88, 5 1 0, S_0x57a607c0b920;
 .timescale 0 0;
    .port_info 0 /INPUT 1 "aclk";
    .port_info 1 /INPUT 1 "aresetn";
    .port_info 2 /INPUT 32 "s_axi_awaddr";
    .port_info 3 /INPUT 1 "s_axi_awvalid";
    .port_info 4 /OUTPUT 1 "s_axi_awready";
    .port_info 5 /INPUT 32 "s_axi_wdata";
    .port_info 6 /INPUT 4 "s_axi_wstrb";
    .port_info 7 /INPUT 1 "s_axi_wvalid";
    .port_info 8 /OUTPUT 1 "s_axi_wready";
    .port_info 9 /OUTPUT 2 "s_axi_bresp";
    .port_info 10 /OUTPUT 1 "s_axi_bvalid";
    .port_info 11 /INPUT 1 "s_axi_bready";
    .port_info 12 /INPUT 32 "s_axi_araddr";
    .port_info 13 /INPUT 1 "s_axi_arvalid";
    .port_info 14 /OUTPUT 1 "s_axi_arready";
    .port_info 15 /OUTPUT 32 "s_axi_rdata";
    .port_info 16 /OUTPUT 2 "s_axi_rresp";
    .port_info 17 /OUTPUT 1 "s_axi_rvalid";
    .port_info 18 /INPUT 1 "s_axi_rready";
P_0x57a607cdebd0 .param/l "ADDR_WIDTH" 0 5 2, +C4<00000000000000000000000000100000>;
P_0x57a607cdec10 .param/l "DATA_WIDTH" 0 5 3, +C4<00000000000000000000000000100000>;
P_0x57a607cdec50 .param/l "RESP_OKAY" 1 5 46, C4<00>;
P_0x57a607cdec90 .param/l "RESP_SLVERR" 1 5 47, C4<10>;
L_0x57a607ca29a0 .functor AND 1, L_0x57a607d1f120, L_0x57a607d1f1f0, C4<1>, C4<1>;
L_0x57a607c9f020 .functor AND 1, L_0x57a607d1f2c0, L_0x57a607d1f360, C4<1>, C4<1>;
v0x57a607d13810_0 .net *"_ivl_1", 0 0, L_0x57a607d1f120;  1 drivers
v0x57a607d138d0_0 .net *"_ivl_3", 0 0, L_0x57a607d1f1f0;  1 drivers
v0x57a607d13990_0 .net *"_ivl_7", 0 0, L_0x57a607d1f2c0;  1 drivers
v0x57a607d13a60_0 .net *"_ivl_9", 0 0, L_0x57a607d1f360;  1 drivers
v0x57a607d13b20_0 .net "aclk", 0 0, v0x57a607c9e930_0;  alias, 1 drivers
v0x57a607d13c10_0 .net "aresetn", 0 0, v0x57a607d1e230_0;  alias, 1 drivers
v0x57a607d13ce0_0 .var "aw_received", 0 0;
v0x57a607d13d80_0 .var "awaddr_reg", 31 0;
v0x57a607d13e40_0 .var "reg0", 31 0;
v0x57a607d13f20_0 .var "reg1", 31 0;
v0x57a607d14000_0 .var "reg2", 31 0;
v0x57a607d140e0_0 .var "reg3", 31 0;
v0x57a607d141c0_0 .net "s_axi_araddr", 31 0, v0x57a607d18ff0_0;  alias, 1 drivers
v0x57a607d142b0_0 .net "s_axi_arready", 0 0, L_0x57a607d1f570;  alias, 1 drivers
v0x57a607d14380_0 .net "s_axi_arvalid", 0 0, v0x57a607d191f0_0;  alias, 1 drivers
v0x57a607d14450_0 .net "s_axi_awaddr", 31 0, v0x57a607d192e0_0;  alias, 1 drivers
v0x57a607d14520_0 .net "s_axi_awready", 0 0, L_0x57a607ca29a0;  alias, 1 drivers
v0x57a607d145f0_0 .net "s_axi_awvalid", 0 0, v0x57a607d19420_0;  alias, 1 drivers
v0x57a607d146c0_0 .net "s_axi_bready", 0 0, v0x57a607d194c0_0;  alias, 1 drivers
v0x57a607d14790_0 .var "s_axi_bresp", 1 0;
v0x57a607d14860_0 .var "s_axi_bvalid", 0 0;
v0x57a607d14930_0 .var "s_axi_rdata", 31 0;
v0x57a607d14a00_0 .net "s_axi_rready", 0 0, v0x57a607d19940_0;  alias, 1 drivers
v0x57a607d14ad0_0 .var "s_axi_rresp", 1 0;
v0x57a607d14ba0_0 .var "s_axi_rvalid", 0 0;
v0x57a607d14c70_0 .net "s_axi_wdata", 31 0, v0x57a607d19c50_0;  alias, 1 drivers
v0x57a607d14d40_0 .net "s_axi_wready", 0 0, L_0x57a607c9f020;  alias, 1 drivers
v0x57a607d14e10_0 .net "s_axi_wstrb", 3 0, v0x57a607d19db0_0;  alias, 1 drivers
v0x57a607d14ee0_0 .net "s_axi_wvalid", 0 0, v0x57a607d19e70_0;  alias, 1 drivers
v0x57a607d14fb0_0 .var "w_received", 0 0;
v0x57a607d15050_0 .var "wdata_reg", 31 0;
v0x57a607d150f0_0 .var "wstrb_reg", 3 0;
L_0x57a607d1f120 .reduce/nor v0x57a607d13ce0_0;
L_0x57a607d1f1f0 .reduce/nor v0x57a607d14860_0;
L_0x57a607d1f2c0 .reduce/nor v0x57a607d14fb0_0;
L_0x57a607d1f360 .reduce/nor v0x57a607d14860_0;
L_0x57a607d1f570 .reduce/nor v0x57a607d14ba0_0;
S_0x57a607d153d0 .scope module, "fault_injection" "axi4_lite_fault_injection" 3 270, 6 1 0, S_0x57a607c0b920;
 .timescale 0 0;
    .port_info 0 /INPUT 1 "aclk";
    .port_info 1 /INPUT 1 "aresetn";
    .port_info 2 /INPUT 32 "awaddr";
    .port_info 3 /INPUT 1 "awvalid";
    .port_info 4 /INPUT 1 "awready";
    .port_info 5 /INPUT 32 "wdata";
    .port_info 6 /INPUT 4 "wstrb";
    .port_info 7 /INPUT 1 "wvalid";
    .port_info 8 /INPUT 1 "wready";
    .port_info 9 /INPUT 2 "bresp";
    .port_info 10 /INPUT 1 "bvalid";
    .port_info 11 /INPUT 1 "bready";
    .port_info 12 /INPUT 32 "araddr";
    .port_info 13 /INPUT 1 "arvalid";
    .port_info 14 /INPUT 1 "arready";
    .port_info 15 /INPUT 32 "rdata";
    .port_info 16 /INPUT 2 "rresp";
    .port_info 17 /INPUT 1 "rvalid";
    .port_info 18 /INPUT 1 "rready";
P_0x57a607c955e0 .param/l "ADDR_WIDTH" 0 6 2, +C4<00000000000000000000000000100000>;
P_0x57a607c95620 .param/l "DATA_WIDTH" 0 6 3, +C4<00000000000000000000000000100000>;
v0x57a607d16a70_0 .net "aclk", 0 0, v0x57a607c9e930_0;  alias, 1 drivers
v0x57a607d16b10_0 .net "araddr", 31 0, v0x57a607d18ff0_0;  alias, 1 drivers
v0x57a607d16c00_0 .net "aresetn", 0 0, v0x57a607d1e230_0;  alias, 1 drivers
v0x57a607d16cf0_0 .net "arready", 0 0, L_0x57a607d1f570;  alias, 1 drivers
v0x57a607d16de0_0 .net "arvalid", 0 0, v0x57a607d191f0_0;  alias, 1 drivers
v0x57a607d16f20_0 .net "awaddr", 31 0, v0x57a607d192e0_0;  alias, 1 drivers
v0x57a607d17010_0 .net "awready", 0 0, L_0x57a607ca29a0;  alias, 1 drivers
v0x57a607d17100_0 .net "awvalid", 0 0, v0x57a607d19420_0;  alias, 1 drivers
v0x57a607d171f0_0 .net "bready", 0 0, v0x57a607d194c0_0;  alias, 1 drivers
v0x57a607d17320_0 .net "bresp", 1 0, v0x57a607d14790_0;  alias, 1 drivers
v0x57a607d17430_0 .net "bvalid", 0 0, v0x57a607d14860_0;  alias, 1 drivers
v0x57a607d17520_0 .var "fault_enable", 0 0;
v0x57a607d175e0_0 .net "rdata", 31 0, v0x57a607d14930_0;  alias, 1 drivers
v0x57a607d176f0_0 .net "rready", 0 0, v0x57a607d19940_0;  alias, 1 drivers
v0x57a607d177e0_0 .net "rresp", 1 0, v0x57a607d14ad0_0;  alias, 1 drivers
v0x57a607d178f0_0 .net "rvalid", 0 0, v0x57a607d14ba0_0;  alias, 1 drivers
v0x57a607d179e0_0 .net "wdata", 31 0, v0x57a607d19c50_0;  alias, 1 drivers
v0x57a607d17c00_0 .net "wready", 0 0, L_0x57a607c9f020;  alias, 1 drivers
v0x57a607d17cf0_0 .net "wstrb", 3 0, v0x57a607d19db0_0;  alias, 1 drivers
v0x57a607d17e00_0 .net "wvalid", 0 0, v0x57a607d19e70_0;  alias, 1 drivers
S_0x57a607d158f0 .scope autotask, "inject_araddr_fault" "inject_araddr_fault" 6 263, 6 263 0, S_0x57a607d153d0;
 .timescale 0 0;
TD_tb_top.fault_injection.inject_araddr_fault ;
    %vpi_call/w 6 267 "$display", "\000" {0 0 0};
    %vpi_call/w 6 268 "$display", "==============================================" {0 0 0};
    %vpi_call/w 6 269 "$display", "[FAULT] ARADDR CHANGE" {0 0 0};
    %vpi_call/w 6 270 "$display", "==============================================" {0 0 0};
    %load/vec4 v0x57a607d16de0_0;
    %flag_set/vec4 9;
    %flag_get/vec4 9;
    %jmp/0 T_0.2, 9;
    %load/vec4 v0x57a607d16cf0_0;
    %nor/r;
    %and;
T_0.2;
    %flag_set/vec4 8;
    %jmp/0xz  T_0.0, 8;
    %vpi_call/w 6 274 "$display", "[FAULT] ARADDR changed while transaction waiting" {0 0 0};
    %jmp T_0.1;
T_0.0 ;
    %vpi_call/w 6 281 "$display", "[FAULT] AR channel is not waiting" {0 0 0};
T_0.1 ;
    %end;
S_0x57a607d15ad0 .scope autotask, "inject_arvalid_fault" "inject_arvalid_fault" 6 230, 6 230 0, S_0x57a607d153d0;
 .timescale 0 0;
TD_tb_top.fault_injection.inject_arvalid_fault ;
    %vpi_call/w 6 234 "$display", "\000" {0 0 0};
    %vpi_call/w 6 235 "$display", "==============================================" {0 0 0};
    %vpi_call/w 6 236 "$display", "[FAULT] ARVALID DROP" {0 0 0};
    %vpi_call/w 6 237 "$display", "==============================================" {0 0 0};
    %load/vec4 v0x57a607d16de0_0;
    %flag_set/vec4 9;
    %flag_get/vec4 9;
    %jmp/0 T_1.5, 9;
    %load/vec4 v0x57a607d16cf0_0;
    %nor/r;
    %and;
T_1.5;
    %flag_set/vec4 8;
    %jmp/0xz  T_1.3, 8;
    %vpi_call/w 6 241 "$display", "[FAULT] ARVALID was HIGH while ARREADY LOW" {0 0 0};
    %jmp T_1.4;
T_1.3 ;
    %vpi_call/w 6 248 "$display", "[FAULT] AR channel is not waiting" {0 0 0};
T_1.4 ;
    %end;
S_0x57a607d15cd0 .scope autotask, "inject_awaddr_fault" "inject_awaddr_fault" 6 87, 6 87 0, S_0x57a607d153d0;
 .timescale 0 0;
TD_tb_top.fault_injection.inject_awaddr_fault ;
    %vpi_call/w 6 91 "$display", "\000" {0 0 0};
    %vpi_call/w 6 92 "$display", "==============================================" {0 0 0};
    %vpi_call/w 6 93 "$display", "[FAULT] AWADDR CHANGE" {0 0 0};
    %vpi_call/w 6 94 "$display", "==============================================" {0 0 0};
    %load/vec4 v0x57a607d17100_0;
    %flag_set/vec4 9;
    %flag_get/vec4 9;
    %jmp/0 T_2.8, 9;
    %load/vec4 v0x57a607d17010_0;
    %nor/r;
    %and;
T_2.8;
    %flag_set/vec4 8;
    %jmp/0xz  T_2.6, 8;
    %vpi_call/w 6 98 "$display", "[FAULT] AWADDR changed while transaction waiting" {0 0 0};
    %jmp T_2.7;
T_2.6 ;
    %vpi_call/w 6 105 "$display", "[FAULT] AW channel is not waiting" {0 0 0};
T_2.7 ;
    %end;
S_0x57a607d15ee0 .scope autotask, "inject_awvalid_fault" "inject_awvalid_fault" 6 50, 6 50 0, S_0x57a607d153d0;
 .timescale 0 0;
TD_tb_top.fault_injection.inject_awvalid_fault ;
    %vpi_call/w 6 54 "$display", "\000" {0 0 0};
    %vpi_call/w 6 55 "$display", "==============================================" {0 0 0};
    %vpi_call/w 6 56 "$display", "[FAULT] AWVALID DROP" {0 0 0};
    %vpi_call/w 6 57 "$display", "==============================================" {0 0 0};
    %load/vec4 v0x57a607d17100_0;
    %flag_set/vec4 9;
    %flag_get/vec4 9;
    %jmp/0 T_3.11, 9;
    %load/vec4 v0x57a607d17010_0;
    %nor/r;
    %and;
T_3.11;
    %flag_set/vec4 8;
    %jmp/0xz  T_3.9, 8;
    %vpi_call/w 6 61 "$display", "[FAULT] AWVALID was HIGH while AWREADY LOW" {0 0 0};
    %vpi_call/w 6 65 "$display", "[FAULT] Protocol violation intentionally created" {0 0 0};
    %jmp T_3.10;
T_3.9 ;
    %vpi_call/w 6 72 "$display", "[FAULT] AW channel is not waiting" {0 0 0};
T_3.10 ;
    %end;
S_0x57a607d160c0 .scope autotask, "inject_bresp_fault" "inject_bresp_fault" 6 193, 6 193 0, S_0x57a607d153d0;
 .timescale 0 0;
TD_tb_top.fault_injection.inject_bresp_fault ;
    %vpi_call/w 6 197 "$display", "\000" {0 0 0};
    %vpi_call/w 6 198 "$display", "==============================================" {0 0 0};
    %vpi_call/w 6 199 "$display", "[FAULT] INVALID BRESP" {0 0 0};
    %vpi_call/w 6 200 "$display", "==============================================" {0 0 0};
    %load/vec4 v0x57a607d17430_0;
    %flag_set/vec4 9;
    %flag_get/vec4 9;
    %jmp/0 T_4.14, 9;
    %load/vec4 v0x57a607d171f0_0;
    %nor/r;
    %and;
T_4.14;
    %flag_set/vec4 8;
    %jmp/0xz  T_4.12, 8;
    %vpi_call/w 6 204 "$display", "[FAULT] BRESP intentionally corrupted" {0 0 0};
    %vpi_call/w 6 208 "$display", "[FAULT] Expected legal values: OKAY/SLVERR" {0 0 0};
    %jmp T_4.13;
T_4.12 ;
    %vpi_call/w 6 215 "$display", "[FAULT] B response is not waiting" {0 0 0};
T_4.13 ;
    %end;
S_0x57a607d162f0 .scope autotask, "inject_rdata_fault" "inject_rdata_fault" 6 297, 6 297 0, S_0x57a607d153d0;
 .timescale 0 0;
TD_tb_top.fault_injection.inject_rdata_fault ;
    %vpi_call/w 6 301 "$display", "\000" {0 0 0};
    %vpi_call/w 6 302 "$display", "==============================================" {0 0 0};
    %vpi_call/w 6 303 "$display", "[FAULT] RDATA CHANGE" {0 0 0};
    %vpi_call/w 6 304 "$display", "==============================================" {0 0 0};
    %load/vec4 v0x57a607d178f0_0;
    %flag_set/vec4 9;
    %flag_get/vec4 9;
    %jmp/0 T_5.17, 9;
    %load/vec4 v0x57a607d176f0_0;
    %nor/r;
    %and;
T_5.17;
    %flag_set/vec4 8;
    %jmp/0xz  T_5.15, 8;
    %vpi_call/w 6 308 "$display", "[FAULT] RDATA changed while RVALID HIGH" {0 0 0};
    %jmp T_5.16;
T_5.15 ;
    %vpi_call/w 6 315 "$display", "[FAULT] R channel is not waiting" {0 0 0};
T_5.16 ;
    %end;
S_0x57a607d164d0 .scope autotask, "inject_rresp_fault" "inject_rresp_fault" 6 331, 6 331 0, S_0x57a607d153d0;
 .timescale 0 0;
TD_tb_top.fault_injection.inject_rresp_fault ;
    %vpi_call/w 6 335 "$display", "\000" {0 0 0};
    %vpi_call/w 6 336 "$display", "==============================================" {0 0 0};
    %vpi_call/w 6 337 "$display", "[FAULT] INVALID RRESP" {0 0 0};
    %vpi_call/w 6 338 "$display", "==============================================" {0 0 0};
    %load/vec4 v0x57a607d178f0_0;
    %flag_set/vec4 9;
    %flag_get/vec4 9;
    %jmp/0 T_6.20, 9;
    %load/vec4 v0x57a607d176f0_0;
    %nor/r;
    %and;
T_6.20;
    %flag_set/vec4 8;
    %jmp/0xz  T_6.18, 8;
    %vpi_call/w 6 342 "$display", "[FAULT] RRESP intentionally corrupted" {0 0 0};
    %jmp T_6.19;
T_6.18 ;
    %vpi_call/w 6 349 "$display", "[FAULT] R response is not waiting" {0 0 0};
T_6.19 ;
    %end;
S_0x57a607d166b0 .scope autotask, "inject_wdata_fault" "inject_wdata_fault" 6 159, 6 159 0, S_0x57a607d153d0;
 .timescale 0 0;
TD_tb_top.fault_injection.inject_wdata_fault ;
    %vpi_call/w 6 163 "$display", "\000" {0 0 0};
    %vpi_call/w 6 164 "$display", "==============================================" {0 0 0};
    %vpi_call/w 6 165 "$display", "[FAULT] WDATA CHANGE" {0 0 0};
    %vpi_call/w 6 166 "$display", "==============================================" {0 0 0};
    %load/vec4 v0x57a607d17e00_0;
    %flag_set/vec4 9;
    %flag_get/vec4 9;
    %jmp/0 T_7.23, 9;
    %load/vec4 v0x57a607d17c00_0;
    %nor/r;
    %and;
T_7.23;
    %flag_set/vec4 8;
    %jmp/0xz  T_7.21, 8;
    %vpi_call/w 6 170 "$display", "[FAULT] WDATA changed while WVALID HIGH" {0 0 0};
    %jmp T_7.22;
T_7.21 ;
    %vpi_call/w 6 177 "$display", "[FAULT] W channel is not waiting" {0 0 0};
T_7.22 ;
    %end;
S_0x57a607d16890 .scope autotask, "inject_wvalid_fault" "inject_wvalid_fault" 6 121, 6 121 0, S_0x57a607d153d0;
 .timescale 0 0;
TD_tb_top.fault_injection.inject_wvalid_fault ;
    %vpi_call/w 6 125 "$display", "\000" {0 0 0};
    %vpi_call/w 6 126 "$display", "==============================================" {0 0 0};
    %vpi_call/w 6 127 "$display", "[FAULT] WVALID DROP" {0 0 0};
    %vpi_call/w 6 128 "$display", "==============================================" {0 0 0};
    %load/vec4 v0x57a607d17e00_0;
    %flag_set/vec4 9;
    %flag_get/vec4 9;
    %jmp/0 T_8.26, 9;
    %load/vec4 v0x57a607d17c00_0;
    %nor/r;
    %and;
T_8.26;
    %flag_set/vec4 8;
    %jmp/0xz  T_8.24, 8;
    %vpi_call/w 6 132 "$display", "[FAULT] WVALID was HIGH while WREADY LOW" {0 0 0};
    %vpi_call/w 6 136 "$display", "[FAULT] Protocol violation intentionally created" {0 0 0};
    %jmp T_8.25;
T_8.24 ;
    %vpi_call/w 6 143 "$display", "[FAULT] W channel is not waiting" {0 0 0};
T_8.25 ;
    %end;
S_0x57a607d181f0 .scope module, "master" "axi4_lite_master" 3 125, 7 1 0, S_0x57a607c0b920;
 .timescale 0 0;
    .port_info 0 /INPUT 1 "aclk";
    .port_info 1 /INPUT 1 "aresetn";
    .port_info 2 /OUTPUT 32 "awaddr";
    .port_info 3 /OUTPUT 1 "awvalid";
    .port_info 4 /INPUT 1 "awready";
    .port_info 5 /OUTPUT 32 "wdata";
    .port_info 6 /OUTPUT 4 "wstrb";
    .port_info 7 /OUTPUT 1 "wvalid";
    .port_info 8 /INPUT 1 "wready";
    .port_info 9 /INPUT 2 "bresp";
    .port_info 10 /INPUT 1 "bvalid";
    .port_info 11 /OUTPUT 1 "bready";
    .port_info 12 /OUTPUT 32 "araddr";
    .port_info 13 /OUTPUT 1 "arvalid";
    .port_info 14 /INPUT 1 "arready";
    .port_info 15 /INPUT 32 "rdata";
    .port_info 16 /INPUT 2 "rresp";
    .port_info 17 /INPUT 1 "rvalid";
    .port_info 18 /OUTPUT 1 "rready";
P_0x57a607d17290 .param/l "ADDR_WIDTH" 0 7 2, +C4<00000000000000000000000000100000>;
P_0x57a607d172d0 .param/l "DATA_WIDTH" 0 7 3, +C4<00000000000000000000000000100000>;
v0x57a607d18f30_0 .net "aclk", 0 0, v0x57a607c9e930_0;  alias, 1 drivers
v0x57a607d18ff0_0 .var "araddr", 31 0;
v0x57a607d190b0_0 .net "aresetn", 0 0, v0x57a607d1e230_0;  alias, 1 drivers
v0x57a607d19150_0 .net "arready", 0 0, L_0x57a607d1f570;  alias, 1 drivers
v0x57a607d191f0_0 .var "arvalid", 0 0;
v0x57a607d192e0_0 .var "awaddr", 31 0;
v0x57a607d19380_0 .net "awready", 0 0, L_0x57a607ca29a0;  alias, 1 drivers
v0x57a607d19420_0 .var "awvalid", 0 0;
v0x57a607d194c0_0 .var "bready", 0 0;
v0x57a607d19560_0 .net "bresp", 1 0, v0x57a607d14790_0;  alias, 1 drivers
v0x57a607d19620_0 .net "bvalid", 0 0, v0x57a607d14860_0;  alias, 1 drivers
v0x57a607d196c0_0 .var "last_bresp", 1 0;
v0x57a607d197a0_0 .var "last_rresp", 1 0;
v0x57a607d19880_0 .net "rdata", 31 0, v0x57a607d14930_0;  alias, 1 drivers
v0x57a607d19940_0 .var "rready", 0 0;
v0x57a607d199e0_0 .net "rresp", 1 0, v0x57a607d14ad0_0;  alias, 1 drivers
v0x57a607d19aa0_0 .net "rvalid", 0 0, v0x57a607d14ba0_0;  alias, 1 drivers
v0x57a607d19c50_0 .var "wdata", 31 0;
v0x57a607d19d10_0 .net "wready", 0 0, L_0x57a607c9f020;  alias, 1 drivers
v0x57a607d19db0_0 .var "wstrb", 3 0;
v0x57a607d19e70_0 .var "wvalid", 0 0;
S_0x57a607d186d0 .scope autotask, "read" "read" 7 79, 7 79 0, S_0x57a607d181f0;
 .timescale 0 0;
v0x57a607d188d0_0 .var "addr", 31 0;
v0x57a607d189d0_0 .var "data", 31 0;
TD_tb_top.master.read ;
    %wait E_0x57a607c544f0;
    %load/vec4 v0x57a607d188d0_0;
    %assign/vec4 v0x57a607d18ff0_0, 0;
    %pushi/vec4 1, 0, 1;
    %assign/vec4 v0x57a607d191f0_0, 0;
    %wait E_0x57a607c544f0;
T_9.27 ;
    %load/vec4 v0x57a607d19150_0;
    %nor/r;
    %flag_set/vec4 8;
    %jmp/0xz T_9.28, 8;
    %wait E_0x57a607c544f0;
    %jmp T_9.27;
T_9.28 ;
    %pushi/vec4 0, 0, 1;
    %assign/vec4 v0x57a607d191f0_0, 0;
    %pushi/vec4 1, 0, 1;
    %assign/vec4 v0x57a607d19940_0, 0;
    %wait E_0x57a607c544f0;
T_9.29 ;
    %load/vec4 v0x57a607d19aa0_0;
    %nor/r;
    %flag_set/vec4 8;
    %jmp/0xz T_9.30, 8;
    %wait E_0x57a607c544f0;
    %jmp T_9.29;
T_9.30 ;
    %load/vec4 v0x57a607d19880_0;
    %store/vec4 v0x57a607d189d0_0, 0, 32;
    %load/vec4 v0x57a607d199e0_0;
    %store/vec4 v0x57a607d197a0_0, 0, 2;
    %load/vec4 v0x57a607d199e0_0;
    %cmpi/e 0, 0, 2;
    %jmp/0xz  T_9.31, 4;
    %vpi_call/w 7 101 "$display", "[MASTER] READ SUCCESS ADDR=%h DATA=%h", v0x57a607d188d0_0, v0x57a607d189d0_0 {0 0 0};
    %jmp T_9.32;
T_9.31 ;
    %vpi_call/w 7 103 "$display", "[MASTER] READ RESPONSE ERROR ADDR=%h RRESP=%b", v0x57a607d188d0_0, v0x57a607d199e0_0 {0 0 0};
T_9.32 ;
    %pushi/vec4 0, 0, 1;
    %assign/vec4 v0x57a607d19940_0, 0;
    %end;
S_0x57a607d18ab0 .scope autotask, "write" "write" 7 41, 7 41 0, S_0x57a607d181f0;
 .timescale 0 0;
v0x57a607d18cb0_0 .var "addr", 31 0;
v0x57a607d18d90_0 .var "data", 31 0;
v0x57a607d18e70_0 .var "strb", 3 0;
TD_tb_top.master.write ;
    %wait E_0x57a607c544f0;
    %load/vec4 v0x57a607d18cb0_0;
    %assign/vec4 v0x57a607d192e0_0, 0;
    %pushi/vec4 1, 0, 1;
    %assign/vec4 v0x57a607d19420_0, 0;
    %wait E_0x57a607c544f0;
T_10.33 ;
    %load/vec4 v0x57a607d19380_0;
    %nor/r;
    %flag_set/vec4 8;
    %jmp/0xz T_10.34, 8;
    %wait E_0x57a607c544f0;
    %jmp T_10.33;
T_10.34 ;
    %pushi/vec4 0, 0, 1;
    %assign/vec4 v0x57a607d19420_0, 0;
    %load/vec4 v0x57a607d18d90_0;
    %assign/vec4 v0x57a607d19c50_0, 0;
    %load/vec4 v0x57a607d18e70_0;
    %assign/vec4 v0x57a607d19db0_0, 0;
    %pushi/vec4 1, 0, 1;
    %assign/vec4 v0x57a607d19e70_0, 0;
    %wait E_0x57a607c544f0;
T_10.35 ;
    %load/vec4 v0x57a607d19d10_0;
    %nor/r;
    %flag_set/vec4 8;
    %jmp/0xz T_10.36, 8;
    %wait E_0x57a607c544f0;
    %jmp T_10.35;
T_10.36 ;
    %pushi/vec4 0, 0, 1;
    %assign/vec4 v0x57a607d19e70_0, 0;
    %pushi/vec4 1, 0, 1;
    %assign/vec4 v0x57a607d194c0_0, 0;
    %wait E_0x57a607c544f0;
T_10.37 ;
    %load/vec4 v0x57a607d19620_0;
    %nor/r;
    %flag_set/vec4 8;
    %jmp/0xz T_10.38, 8;
    %wait E_0x57a607c544f0;
    %jmp T_10.37;
T_10.38 ;
    %load/vec4 v0x57a607d19560_0;
    %store/vec4 v0x57a607d196c0_0, 0, 2;
    %load/vec4 v0x57a607d19560_0;
    %cmpi/e 0, 0, 2;
    %jmp/0xz  T_10.39, 4;
    %vpi_call/w 7 72 "$display", "[MASTER] WRITE SUCCESS ADDR=%h DATA=%h", v0x57a607d18cb0_0, v0x57a607d18d90_0 {0 0 0};
    %jmp T_10.40;
T_10.39 ;
    %vpi_call/w 7 74 "$display", "[MASTER] WRITE RESPONSE ERROR ADDR=%h BRESP=%b", v0x57a607d18cb0_0, v0x57a607d19560_0 {0 0 0};
T_10.40 ;
    %pushi/vec4 0, 0, 1;
    %assign/vec4 v0x57a607d194c0_0, 0;
    %end;
S_0x57a607d1a210 .scope module, "monitor" "axi4_lite_monitor" 3 162, 8 1 0, S_0x57a607c0b920;
 .timescale 0 0;
    .port_info 0 /INPUT 1 "aclk";
    .port_info 1 /INPUT 1 "aresetn";
    .port_info 2 /INPUT 32 "awaddr";
    .port_info 3 /INPUT 1 "awvalid";
    .port_info 4 /INPUT 1 "awready";
    .port_info 5 /INPUT 32 "wdata";
    .port_info 6 /INPUT 4 "wstrb";
    .port_info 7 /INPUT 1 "wvalid";
    .port_info 8 /INPUT 1 "wready";
    .port_info 9 /INPUT 2 "bresp";
    .port_info 10 /INPUT 1 "bvalid";
    .port_info 11 /INPUT 1 "bready";
    .port_info 12 /INPUT 32 "araddr";
    .port_info 13 /INPUT 1 "arvalid";
    .port_info 14 /INPUT 1 "arready";
    .port_info 15 /INPUT 32 "rdata";
    .port_info 16 /INPUT 2 "rresp";
    .port_info 17 /INPUT 1 "rvalid";
    .port_info 18 /INPUT 1 "rready";
P_0x57a607d18420 .param/l "ADDR_WIDTH" 0 8 2, +C4<00000000000000000000000000100000>;
P_0x57a607d18460 .param/l "DATA_WIDTH" 0 8 3, +C4<00000000000000000000000000100000>;
v0x57a607d1a6f0_0 .net "aclk", 0 0, v0x57a607c9e930_0;  alias, 1 drivers
v0x57a607d1a7b0_0 .net "araddr", 31 0, v0x57a607d18ff0_0;  alias, 1 drivers
v0x57a607d1a900_0 .net "aresetn", 0 0, v0x57a607d1e230_0;  alias, 1 drivers
v0x57a607d1aa30_0 .net "arready", 0 0, L_0x57a607d1f570;  alias, 1 drivers
v0x57a607d1ab60_0 .net "arvalid", 0 0, v0x57a607d191f0_0;  alias, 1 drivers
v0x57a607d1ac90_0 .var "aw_seen", 0 0;
v0x57a607d1ad30_0 .net "awaddr", 31 0, v0x57a607d192e0_0;  alias, 1 drivers
v0x57a607d1ae80_0 .net "awready", 0 0, L_0x57a607ca29a0;  alias, 1 drivers
v0x57a607d1afb0_0 .net "awvalid", 0 0, v0x57a607d19420_0;  alias, 1 drivers
v0x57a607d1b170_0 .net "bready", 0 0, v0x57a607d194c0_0;  alias, 1 drivers
v0x57a607d1b2a0_0 .net "bresp", 1 0, v0x57a607d14790_0;  alias, 1 drivers
v0x57a607d1b3d0_0 .net "bvalid", 0 0, v0x57a607d14860_0;  alias, 1 drivers
v0x57a607d1b500_0 .var "monitored_awaddr", 31 0;
v0x57a607d1b5a0_0 .var "monitored_wdata", 31 0;
v0x57a607d1b640_0 .var "monitored_wstrb", 3 0;
v0x57a607d1b6e0_0 .net "rdata", 31 0, v0x57a607d14930_0;  alias, 1 drivers
v0x57a607d1b810_0 .net "rready", 0 0, v0x57a607d19940_0;  alias, 1 drivers
v0x57a607d1b9c0_0 .net "rresp", 1 0, v0x57a607d14ad0_0;  alias, 1 drivers
v0x57a607d1baf0_0 .net "rvalid", 0 0, v0x57a607d14ba0_0;  alias, 1 drivers
v0x57a607d1bc20_0 .var "w_seen", 0 0;
v0x57a607d1bcc0_0 .net "wdata", 31 0, v0x57a607d19c50_0;  alias, 1 drivers
v0x57a607d1bdf0_0 .net "wready", 0 0, L_0x57a607c9f020;  alias, 1 drivers
v0x57a607d1bf20_0 .net "wstrb", 3 0, v0x57a607d19db0_0;  alias, 1 drivers
v0x57a607d1c050_0 .net "wvalid", 0 0, v0x57a607d19e70_0;  alias, 1 drivers
S_0x57a607d1c460 .scope module, "scoreboard" "axi4_lite_scoreboard" 3 197, 9 1 0, S_0x57a607c0b920;
 .timescale 0 0;
    .port_info 0 /INPUT 1 "aclk";
    .port_info 1 /INPUT 1 "aresetn";
    .port_info 2 /INPUT 32 "awaddr";
    .port_info 3 /INPUT 1 "awvalid";
    .port_info 4 /INPUT 1 "awready";
    .port_info 5 /INPUT 32 "wdata";
    .port_info 6 /INPUT 4 "wstrb";
    .port_info 7 /INPUT 1 "wvalid";
    .port_info 8 /INPUT 1 "wready";
    .port_info 9 /INPUT 2 "bresp";
    .port_info 10 /INPUT 1 "bvalid";
    .port_info 11 /INPUT 1 "bready";
    .port_info 12 /INPUT 32 "araddr";
    .port_info 13 /INPUT 1 "arvalid";
    .port_info 14 /INPUT 1 "arready";
    .port_info 15 /INPUT 32 "rdata";
    .port_info 16 /INPUT 2 "rresp";
    .port_info 17 /INPUT 1 "rvalid";
    .port_info 18 /INPUT 1 "rready";
P_0x57a607d1c5f0 .param/l "ADDR_WIDTH" 0 9 2, +C4<00000000000000000000000000100000>;
P_0x57a607d1c630 .param/l "DATA_WIDTH" 0 9 3, +C4<00000000000000000000000000100000>;
v0x57a607d1c8e0_0 .net "aclk", 0 0, v0x57a607c9e930_0;  alias, 1 drivers
v0x57a607d1c9a0_0 .net "araddr", 31 0, v0x57a607d18ff0_0;  alias, 1 drivers
v0x57a607d1ca60_0 .net "aresetn", 0 0, v0x57a607d1e230_0;  alias, 1 drivers
v0x57a607d1cb00_0 .net "arready", 0 0, L_0x57a607d1f570;  alias, 1 drivers
v0x57a607d1cba0_0 .net "arvalid", 0 0, v0x57a607d191f0_0;  alias, 1 drivers
v0x57a607d1cc40_0 .var "aw_received", 0 0;
v0x57a607d1cce0_0 .net "awaddr", 31 0, v0x57a607d192e0_0;  alias, 1 drivers
v0x57a607d1cda0_0 .net "awready", 0 0, L_0x57a607ca29a0;  alias, 1 drivers
v0x57a607d1ce40_0 .net "awvalid", 0 0, v0x57a607d19420_0;  alias, 1 drivers
v0x57a607d1cee0_0 .net "bready", 0 0, v0x57a607d194c0_0;  alias, 1 drivers
v0x57a607d1cf80_0 .net "bresp", 1 0, v0x57a607d14790_0;  alias, 1 drivers
v0x57a607d1d040_0 .net "bvalid", 0 0, v0x57a607d14860_0;  alias, 1 drivers
v0x57a607d1d0e0_0 .var "expected_awaddr", 31 0;
v0x57a607d1d1c0_0 .var "expected_reg0", 31 0;
v0x57a607d1d2a0_0 .var "expected_reg1", 31 0;
v0x57a607d1d380_0 .var "expected_reg2", 31 0;
v0x57a607d1d460_0 .var "expected_reg3", 31 0;
v0x57a607d1d650_0 .var "expected_wdata", 31 0;
v0x57a607d1d730_0 .var "expected_wstrb", 3 0;
v0x57a607d1d810_0 .net "rdata", 31 0, v0x57a607d14930_0;  alias, 1 drivers
v0x57a607d1d8d0_0 .net "rready", 0 0, v0x57a607d19940_0;  alias, 1 drivers
v0x57a607d1d970_0 .net "rresp", 1 0, v0x57a607d14ad0_0;  alias, 1 drivers
v0x57a607d1da30_0 .net "rvalid", 0 0, v0x57a607d14ba0_0;  alias, 1 drivers
v0x57a607d1dad0_0 .var "w_received", 0 0;
v0x57a607d1db90_0 .net "wdata", 31 0, v0x57a607d19c50_0;  alias, 1 drivers
v0x57a607d1dc50_0 .net "wready", 0 0, L_0x57a607c9f020;  alias, 1 drivers
v0x57a607d1dcf0_0 .net "wstrb", 3 0, v0x57a607d19db0_0;  alias, 1 drivers
v0x57a607d1ddb0_0 .net "wvalid", 0 0, v0x57a607d19e70_0;  alias, 1 drivers
    .scope S_0x57a607d132e0;
T_11 ;
    %wait E_0x57a607c544f0;
    %load/vec4 v0x57a607d13c10_0;
    %nor/r;
    %flag_set/vec4 8;
    %jmp/0xz  T_11.0, 8;
    %pushi/vec4 0, 0, 32;
    %assign/vec4 v0x57a607d13e40_0, 0;
    %pushi/vec4 0, 0, 32;
    %assign/vec4 v0x57a607d13f20_0, 0;
    %pushi/vec4 0, 0, 32;
    %assign/vec4 v0x57a607d14000_0, 0;
    %pushi/vec4 0, 0, 32;
    %assign/vec4 v0x57a607d140e0_0, 0;
    %pushi/vec4 0, 0, 32;
    %assign/vec4 v0x57a607d13d80_0, 0;
    %pushi/vec4 0, 0, 32;
    %assign/vec4 v0x57a607d15050_0, 0;
    %pushi/vec4 0, 0, 4;
    %assign/vec4 v0x57a607d150f0_0, 0;
    %pushi/vec4 0, 0, 1;
    %assign/vec4 v0x57a607d13ce0_0, 0;
    %pushi/vec4 0, 0, 1;
    %assign/vec4 v0x57a607d14fb0_0, 0;
    %pushi/vec4 0, 0, 1;
    %assign/vec4 v0x57a607d14860_0, 0;
    %pushi/vec4 0, 0, 2;
    %assign/vec4 v0x57a607d14790_0, 0;
    %pushi/vec4 0, 0, 1;
    %assign/vec4 v0x57a607d14ba0_0, 0;
    %pushi/vec4 0, 0, 32;
    %assign/vec4 v0x57a607d14930_0, 0;
    %pushi/vec4 0, 0, 2;
    %assign/vec4 v0x57a607d14ad0_0, 0;
    %jmp T_11.1;
T_11.0 ;
    %load/vec4 v0x57a607d145f0_0;
    %flag_set/vec4 9;
    %flag_get/vec4 9;
    %jmp/0 T_11.4, 9;
    %load/vec4 v0x57a607d14520_0;
    %and;
T_11.4;
    %flag_set/vec4 8;
    %jmp/0xz  T_11.2, 8;
    %load/vec4 v0x57a607d14450_0;
    %assign/vec4 v0x57a607d13d80_0, 0;
    %pushi/vec4 1, 0, 1;
    %assign/vec4 v0x57a607d13ce0_0, 0;
T_11.2 ;
    %load/vec4 v0x57a607d14ee0_0;
    %flag_set/vec4 9;
    %flag_get/vec4 9;
    %jmp/0 T_11.7, 9;
    %load/vec4 v0x57a607d14d40_0;
    %and;
T_11.7;
    %flag_set/vec4 8;
    %jmp/0xz  T_11.5, 8;
    %load/vec4 v0x57a607d14c70_0;
    %assign/vec4 v0x57a607d15050_0, 0;
    %load/vec4 v0x57a607d14e10_0;
    %assign/vec4 v0x57a607d150f0_0, 0;
    %pushi/vec4 1, 0, 1;
    %assign/vec4 v0x57a607d14fb0_0, 0;
T_11.5 ;
    %load/vec4 v0x57a607d13ce0_0;
    %flag_set/vec4 10;
    %flag_get/vec4 10;
    %jmp/0 T_11.11, 10;
    %load/vec4 v0x57a607d14fb0_0;
    %and;
T_11.11;
    %flag_set/vec4 9;
    %flag_get/vec4 9;
    %jmp/0 T_11.10, 9;
    %load/vec4 v0x57a607d14860_0;
    %nor/r;
    %and;
T_11.10;
    %flag_set/vec4 8;
    %jmp/0xz  T_11.8, 8;
    %load/vec4 v0x57a607d13d80_0;
    %parti/s 28, 4, 4;
    %cmpi/e 0, 0, 28;
    %flag_mov 8, 4;
    %jmp/0 T_11.18, 8;
    %load/vec4 v0x57a607d13d80_0;
    %parti/s 4, 2, 3;
    %jmp/1 T_11.19, 8;
T_11.18 ; End of true expr.
    %pushi/vec4 15, 0, 4;
    %jmp/0 T_11.19, 8;
 ; End of false expr.
    %blend;
T_11.19;
    %dup/vec4;
    %pushi/vec4 0, 0, 4;
    %cmp/u;
    %jmp/1 T_11.12, 6;
    %dup/vec4;
    %pushi/vec4 1, 0, 4;
    %cmp/u;
    %jmp/1 T_11.13, 6;
    %dup/vec4;
    %pushi/vec4 2, 0, 4;
    %cmp/u;
    %jmp/1 T_11.14, 6;
    %dup/vec4;
    %pushi/vec4 3, 0, 4;
    %cmp/u;
    %jmp/1 T_11.15, 6;
    %pushi/vec4 2, 0, 2;
    %assign/vec4 v0x57a607d14790_0, 0;
    %jmp T_11.17;
T_11.12 ;
    %load/vec4 v0x57a607d150f0_0;
    %parti/s 1, 0, 2;
    %flag_set/vec4 8;
    %jmp/0xz  T_11.20, 8;
    %load/vec4 v0x57a607d15050_0;
    %parti/s 8, 0, 2;
    %ix/load 4, 0, 0;
    %ix/load 5, 0, 0;
    %flag_set/imm 4, 0;
    %assign/vec4/off/d v0x57a607d13e40_0, 4, 5;
T_11.20 ;
    %load/vec4 v0x57a607d150f0_0;
    %parti/s 1, 1, 2;
    %flag_set/vec4 8;
    %jmp/0xz  T_11.22, 8;
    %load/vec4 v0x57a607d15050_0;
    %parti/s 8, 8, 5;
    %ix/load 4, 8, 0;
    %ix/load 5, 0, 0;
    %flag_set/imm 4, 0;
    %assign/vec4/off/d v0x57a607d13e40_0, 4, 5;
T_11.22 ;
    %load/vec4 v0x57a607d150f0_0;
    %parti/s 1, 2, 3;
    %flag_set/vec4 8;
    %jmp/0xz  T_11.24, 8;
    %load/vec4 v0x57a607d15050_0;
    %parti/s 8, 16, 6;
    %ix/load 4, 16, 0;
    %ix/load 5, 0, 0;
    %flag_set/imm 4, 0;
    %assign/vec4/off/d v0x57a607d13e40_0, 4, 5;
T_11.24 ;
    %load/vec4 v0x57a607d150f0_0;
    %parti/s 1, 3, 3;
    %flag_set/vec4 8;
    %jmp/0xz  T_11.26, 8;
    %load/vec4 v0x57a607d15050_0;
    %parti/s 8, 24, 6;
    %ix/load 4, 24, 0;
    %ix/load 5, 0, 0;
    %flag_set/imm 4, 0;
    %assign/vec4/off/d v0x57a607d13e40_0, 4, 5;
T_11.26 ;
    %pushi/vec4 0, 0, 2;
    %assign/vec4 v0x57a607d14790_0, 0;
    %jmp T_11.17;
T_11.13 ;
    %load/vec4 v0x57a607d150f0_0;
    %parti/s 1, 0, 2;
    %flag_set/vec4 8;
    %jmp/0xz  T_11.28, 8;
    %load/vec4 v0x57a607d15050_0;
    %parti/s 8, 0, 2;
    %ix/load 4, 0, 0;
    %ix/load 5, 0, 0;
    %flag_set/imm 4, 0;
    %assign/vec4/off/d v0x57a607d13f20_0, 4, 5;
T_11.28 ;
    %load/vec4 v0x57a607d150f0_0;
    %parti/s 1, 1, 2;
    %flag_set/vec4 8;
    %jmp/0xz  T_11.30, 8;
    %load/vec4 v0x57a607d15050_0;
    %parti/s 8, 8, 5;
    %ix/load 4, 8, 0;
    %ix/load 5, 0, 0;
    %flag_set/imm 4, 0;
    %assign/vec4/off/d v0x57a607d13f20_0, 4, 5;
T_11.30 ;
    %load/vec4 v0x57a607d150f0_0;
    %parti/s 1, 2, 3;
    %flag_set/vec4 8;
    %jmp/0xz  T_11.32, 8;
    %load/vec4 v0x57a607d15050_0;
    %parti/s 8, 16, 6;
    %ix/load 4, 16, 0;
    %ix/load 5, 0, 0;
    %flag_set/imm 4, 0;
    %assign/vec4/off/d v0x57a607d13f20_0, 4, 5;
T_11.32 ;
    %load/vec4 v0x57a607d150f0_0;
    %parti/s 1, 3, 3;
    %flag_set/vec4 8;
    %jmp/0xz  T_11.34, 8;
    %load/vec4 v0x57a607d15050_0;
    %parti/s 8, 24, 6;
    %ix/load 4, 24, 0;
    %ix/load 5, 0, 0;
    %flag_set/imm 4, 0;
    %assign/vec4/off/d v0x57a607d13f20_0, 4, 5;
T_11.34 ;
    %pushi/vec4 0, 0, 2;
    %assign/vec4 v0x57a607d14790_0, 0;
    %jmp T_11.17;
T_11.14 ;
    %load/vec4 v0x57a607d150f0_0;
    %parti/s 1, 0, 2;
    %flag_set/vec4 8;
    %jmp/0xz  T_11.36, 8;
    %load/vec4 v0x57a607d15050_0;
    %parti/s 8, 0, 2;
    %ix/load 4, 0, 0;
    %ix/load 5, 0, 0;
    %flag_set/imm 4, 0;
    %assign/vec4/off/d v0x57a607d14000_0, 4, 5;
T_11.36 ;
    %load/vec4 v0x57a607d150f0_0;
    %parti/s 1, 1, 2;
    %flag_set/vec4 8;
    %jmp/0xz  T_11.38, 8;
    %load/vec4 v0x57a607d15050_0;
    %parti/s 8, 8, 5;
    %ix/load 4, 8, 0;
    %ix/load 5, 0, 0;
    %flag_set/imm 4, 0;
    %assign/vec4/off/d v0x57a607d14000_0, 4, 5;
T_11.38 ;
    %load/vec4 v0x57a607d150f0_0;
    %parti/s 1, 2, 3;
    %flag_set/vec4 8;
    %jmp/0xz  T_11.40, 8;
    %load/vec4 v0x57a607d15050_0;
    %parti/s 8, 16, 6;
    %ix/load 4, 16, 0;
    %ix/load 5, 0, 0;
    %flag_set/imm 4, 0;
    %assign/vec4/off/d v0x57a607d14000_0, 4, 5;
T_11.40 ;
    %load/vec4 v0x57a607d150f0_0;
    %parti/s 1, 3, 3;
    %flag_set/vec4 8;
    %jmp/0xz  T_11.42, 8;
    %load/vec4 v0x57a607d15050_0;
    %parti/s 8, 24, 6;
    %ix/load 4, 24, 0;
    %ix/load 5, 0, 0;
    %flag_set/imm 4, 0;
    %assign/vec4/off/d v0x57a607d14000_0, 4, 5;
T_11.42 ;
    %pushi/vec4 0, 0, 2;
    %assign/vec4 v0x57a607d14790_0, 0;
    %jmp T_11.17;
T_11.15 ;
    %load/vec4 v0x57a607d150f0_0;
    %parti/s 1, 0, 2;
    %flag_set/vec4 8;
    %jmp/0xz  T_11.44, 8;
    %load/vec4 v0x57a607d15050_0;
    %parti/s 8, 0, 2;
    %ix/load 4, 0, 0;
    %ix/load 5, 0, 0;
    %flag_set/imm 4, 0;
    %assign/vec4/off/d v0x57a607d140e0_0, 4, 5;
T_11.44 ;
    %load/vec4 v0x57a607d150f0_0;
    %parti/s 1, 1, 2;
    %flag_set/vec4 8;
    %jmp/0xz  T_11.46, 8;
    %load/vec4 v0x57a607d15050_0;
    %parti/s 8, 8, 5;
    %ix/load 4, 8, 0;
    %ix/load 5, 0, 0;
    %flag_set/imm 4, 0;
    %assign/vec4/off/d v0x57a607d140e0_0, 4, 5;
T_11.46 ;
    %load/vec4 v0x57a607d150f0_0;
    %parti/s 1, 2, 3;
    %flag_set/vec4 8;
    %jmp/0xz  T_11.48, 8;
    %load/vec4 v0x57a607d15050_0;
    %parti/s 8, 16, 6;
    %ix/load 4, 16, 0;
    %ix/load 5, 0, 0;
    %flag_set/imm 4, 0;
    %assign/vec4/off/d v0x57a607d140e0_0, 4, 5;
T_11.48 ;
    %load/vec4 v0x57a607d150f0_0;
    %parti/s 1, 3, 3;
    %flag_set/vec4 8;
    %jmp/0xz  T_11.50, 8;
    %load/vec4 v0x57a607d15050_0;
    %parti/s 8, 24, 6;
    %ix/load 4, 24, 0;
    %ix/load 5, 0, 0;
    %flag_set/imm 4, 0;
    %assign/vec4/off/d v0x57a607d140e0_0, 4, 5;
T_11.50 ;
    %pushi/vec4 0, 0, 2;
    %assign/vec4 v0x57a607d14790_0, 0;
    %jmp T_11.17;
T_11.17 ;
    %pop/vec4 1;
    %pushi/vec4 1, 0, 1;
    %assign/vec4 v0x57a607d14860_0, 0;
    %pushi/vec4 0, 0, 1;
    %assign/vec4 v0x57a607d13ce0_0, 0;
    %pushi/vec4 0, 0, 1;
    %assign/vec4 v0x57a607d14fb0_0, 0;
T_11.8 ;
    %load/vec4 v0x57a607d14860_0;
    %flag_set/vec4 9;
    %flag_get/vec4 9;
    %jmp/0 T_11.54, 9;
    %load/vec4 v0x57a607d146c0_0;
    %and;
T_11.54;
    %flag_set/vec4 8;
    %jmp/0xz  T_11.52, 8;
    %pushi/vec4 0, 0, 1;
    %assign/vec4 v0x57a607d14860_0, 0;
T_11.52 ;
    %load/vec4 v0x57a607d14380_0;
    %flag_set/vec4 9;
    %flag_get/vec4 9;
    %jmp/0 T_11.57, 9;
    %load/vec4 v0x57a607d142b0_0;
    %and;
T_11.57;
    %flag_set/vec4 8;
    %jmp/0xz  T_11.55, 8;
    %load/vec4 v0x57a607d141c0_0;
    %parti/s 28, 4, 4;
    %cmpi/e 0, 0, 28;
    %flag_mov 8, 4;
    %jmp/0 T_11.64, 8;
    %load/vec4 v0x57a607d141c0_0;
    %parti/s 4, 2, 3;
    %jmp/1 T_11.65, 8;
T_11.64 ; End of true expr.
    %pushi/vec4 15, 0, 4;
    %jmp/0 T_11.65, 8;
 ; End of false expr.
    %blend;
T_11.65;
    %dup/vec4;
    %pushi/vec4 0, 0, 4;
    %cmp/u;
    %jmp/1 T_11.58, 6;
    %dup/vec4;
    %pushi/vec4 1, 0, 4;
    %cmp/u;
    %jmp/1 T_11.59, 6;
    %dup/vec4;
    %pushi/vec4 2, 0, 4;
    %cmp/u;
    %jmp/1 T_11.60, 6;
    %dup/vec4;
    %pushi/vec4 3, 0, 4;
    %cmp/u;
    %jmp/1 T_11.61, 6;
    %pushi/vec4 0, 0, 32;
    %assign/vec4 v0x57a607d14930_0, 0;
    %pushi/vec4 2, 0, 2;
    %assign/vec4 v0x57a607d14ad0_0, 0;
    %jmp T_11.63;
T_11.58 ;
    %load/vec4 v0x57a607d13e40_0;
    %assign/vec4 v0x57a607d14930_0, 0;
    %pushi/vec4 0, 0, 2;
    %assign/vec4 v0x57a607d14ad0_0, 0;
    %jmp T_11.63;
T_11.59 ;
    %load/vec4 v0x57a607d13f20_0;
    %assign/vec4 v0x57a607d14930_0, 0;
    %pushi/vec4 0, 0, 2;
    %assign/vec4 v0x57a607d14ad0_0, 0;
    %jmp T_11.63;
T_11.60 ;
    %load/vec4 v0x57a607d14000_0;
    %assign/vec4 v0x57a607d14930_0, 0;
    %pushi/vec4 0, 0, 2;
    %assign/vec4 v0x57a607d14ad0_0, 0;
    %jmp T_11.63;
T_11.61 ;
    %load/vec4 v0x57a607d140e0_0;
    %assign/vec4 v0x57a607d14930_0, 0;
    %pushi/vec4 0, 0, 2;
    %assign/vec4 v0x57a607d14ad0_0, 0;
    %jmp T_11.63;
T_11.63 ;
    %pop/vec4 1;
    %pushi/vec4 1, 0, 1;
    %assign/vec4 v0x57a607d14ba0_0, 0;
T_11.55 ;
    %load/vec4 v0x57a607d14ba0_0;
    %flag_set/vec4 9;
    %flag_get/vec4 9;
    %jmp/0 T_11.68, 9;
    %load/vec4 v0x57a607d14a00_0;
    %and;
T_11.68;
    %flag_set/vec4 8;
    %jmp/0xz  T_11.66, 8;
    %pushi/vec4 0, 0, 1;
    %assign/vec4 v0x57a607d14ba0_0, 0;
T_11.66 ;
T_11.1 ;
    %jmp T_11;
    .thread T_11;
    .scope S_0x57a607d181f0;
T_12 ;
    %pushi/vec4 0, 0, 2;
    %store/vec4 v0x57a607d196c0_0, 0, 2;
    %pushi/vec4 0, 0, 2;
    %store/vec4 v0x57a607d197a0_0, 0, 2;
    %end;
    .thread T_12, $init;
    .scope S_0x57a607d181f0;
T_13 ;
    %pushi/vec4 0, 0, 32;
    %store/vec4 v0x57a607d192e0_0, 0, 32;
    %pushi/vec4 0, 0, 1;
    %store/vec4 v0x57a607d19420_0, 0, 1;
    %pushi/vec4 0, 0, 32;
    %store/vec4 v0x57a607d19c50_0, 0, 32;
    %pushi/vec4 0, 0, 4;
    %store/vec4 v0x57a607d19db0_0, 0, 4;
    %pushi/vec4 0, 0, 1;
    %store/vec4 v0x57a607d19e70_0, 0, 1;
    %pushi/vec4 0, 0, 1;
    %store/vec4 v0x57a607d194c0_0, 0, 1;
    %pushi/vec4 0, 0, 32;
    %store/vec4 v0x57a607d18ff0_0, 0, 32;
    %pushi/vec4 0, 0, 1;
    %store/vec4 v0x57a607d191f0_0, 0, 1;
    %pushi/vec4 0, 0, 1;
    %store/vec4 v0x57a607d19940_0, 0, 1;
    %end;
    .thread T_13;
    .scope S_0x57a607d1a210;
T_14 ;
    %wait E_0x57a607c544f0;
    %load/vec4 v0x57a607d1a900_0;
    %nor/r;
    %flag_set/vec4 8;
    %jmp/0xz  T_14.0, 8;
    %pushi/vec4 0, 0, 32;
    %store/vec4 v0x57a607d1b500_0, 0, 32;
    %pushi/vec4 0, 0, 32;
    %store/vec4 v0x57a607d1b5a0_0, 0, 32;
    %pushi/vec4 0, 0, 4;
    %store/vec4 v0x57a607d1b640_0, 0, 4;
    %pushi/vec4 0, 0, 1;
    %store/vec4 v0x57a607d1ac90_0, 0, 1;
    %pushi/vec4 0, 0, 1;
    %store/vec4 v0x57a607d1bc20_0, 0, 1;
    %jmp T_14.1;
T_14.0 ;
    %load/vec4 v0x57a607d1afb0_0;
    %flag_set/vec4 9;
    %flag_get/vec4 9;
    %jmp/0 T_14.4, 9;
    %load/vec4 v0x57a607d1ae80_0;
    %and;
T_14.4;
    %flag_set/vec4 8;
    %jmp/0xz  T_14.2, 8;
    %load/vec4 v0x57a607d1ad30_0;
    %store/vec4 v0x57a607d1b500_0, 0, 32;
    %pushi/vec4 1, 0, 1;
    %store/vec4 v0x57a607d1ac90_0, 0, 1;
    %vpi_call/w 8 73 "$display", "[MONITOR] AW HANDSHAKE: ADDR=%h", v0x57a607d1ad30_0 {0 0 0};
T_14.2 ;
    %load/vec4 v0x57a607d1c050_0;
    %flag_set/vec4 9;
    %flag_get/vec4 9;
    %jmp/0 T_14.7, 9;
    %load/vec4 v0x57a607d1bdf0_0;
    %and;
T_14.7;
    %flag_set/vec4 8;
    %jmp/0xz  T_14.5, 8;
    %load/vec4 v0x57a607d1bcc0_0;
    %store/vec4 v0x57a607d1b5a0_0, 0, 32;
    %load/vec4 v0x57a607d1bf20_0;
    %store/vec4 v0x57a607d1b640_0, 0, 4;
    %pushi/vec4 1, 0, 1;
    %store/vec4 v0x57a607d1bc20_0, 0, 1;
    %vpi_call/w 8 89 "$display", "[MONITOR] W HANDSHAKE: DATA=%h WSTRB=%b", v0x57a607d1bcc0_0, v0x57a607d1bf20_0 {0 0 0};
T_14.5 ;
    %load/vec4 v0x57a607d1b3d0_0;
    %flag_set/vec4 9;
    %flag_get/vec4 9;
    %jmp/0 T_14.10, 9;
    %load/vec4 v0x57a607d1b170_0;
    %and;
T_14.10;
    %flag_set/vec4 8;
    %jmp/0xz  T_14.8, 8;
    %vpi_call/w 8 104 "$display", "[MONITOR] WRITE COMPLETE: ADDR=%h DATA=%h WSTRB=%b BRESP=%b", v0x57a607d1b500_0, v0x57a607d1b5a0_0, v0x57a607d1b640_0, v0x57a607d1b2a0_0 {0 0 0};
    %pushi/vec4 0, 0, 1;
    %store/vec4 v0x57a607d1ac90_0, 0, 1;
    %pushi/vec4 0, 0, 1;
    %store/vec4 v0x57a607d1bc20_0, 0, 1;
T_14.8 ;
    %load/vec4 v0x57a607d1ab60_0;
    %flag_set/vec4 9;
    %flag_get/vec4 9;
    %jmp/0 T_14.13, 9;
    %load/vec4 v0x57a607d1aa30_0;
    %and;
T_14.13;
    %flag_set/vec4 8;
    %jmp/0xz  T_14.11, 8;
    %vpi_call/w 8 124 "$display", "[MONITOR] AR HANDSHAKE: ADDR=%h", v0x57a607d1a7b0_0 {0 0 0};
T_14.11 ;
    %load/vec4 v0x57a607d1baf0_0;
    %flag_set/vec4 9;
    %flag_get/vec4 9;
    %jmp/0 T_14.16, 9;
    %load/vec4 v0x57a607d1b810_0;
    %and;
T_14.16;
    %flag_set/vec4 8;
    %jmp/0xz  T_14.14, 8;
    %vpi_call/w 8 138 "$display", "[MONITOR] READ COMPLETE: DATA=%h RRESP=%b", v0x57a607d1b6e0_0, v0x57a607d1b9c0_0 {0 0 0};
T_14.14 ;
T_14.1 ;
    %jmp T_14;
    .thread T_14;
    .scope S_0x57a607d1c460;
T_15 ;
    %wait E_0x57a607c544f0;
    %load/vec4 v0x57a607d1ca60_0;
    %nor/r;
    %flag_set/vec4 8;
    %jmp/0xz  T_15.0, 8;
    %pushi/vec4 0, 0, 32;
    %store/vec4 v0x57a607d1d1c0_0, 0, 32;
    %pushi/vec4 0, 0, 32;
    %store/vec4 v0x57a607d1d2a0_0, 0, 32;
    %pushi/vec4 0, 0, 32;
    %store/vec4 v0x57a607d1d380_0, 0, 32;
    %pushi/vec4 0, 0, 32;
    %store/vec4 v0x57a607d1d460_0, 0, 32;
    %pushi/vec4 0, 0, 32;
    %store/vec4 v0x57a607d1d0e0_0, 0, 32;
    %pushi/vec4 0, 0, 32;
    %store/vec4 v0x57a607d1d650_0, 0, 32;
    %pushi/vec4 0, 0, 4;
    %store/vec4 v0x57a607d1d730_0, 0, 4;
    %pushi/vec4 0, 0, 1;
    %store/vec4 v0x57a607d1cc40_0, 0, 1;
    %pushi/vec4 0, 0, 1;
    %store/vec4 v0x57a607d1dad0_0, 0, 1;
    %jmp T_15.1;
T_15.0 ;
    %load/vec4 v0x57a607d1ce40_0;
    %flag_set/vec4 9;
    %flag_get/vec4 9;
    %jmp/0 T_15.4, 9;
    %load/vec4 v0x57a607d1cda0_0;
    %and;
T_15.4;
    %flag_set/vec4 8;
    %jmp/0xz  T_15.2, 8;
    %load/vec4 v0x57a607d1cce0_0;
    %store/vec4 v0x57a607d1d0e0_0, 0, 32;
    %pushi/vec4 1, 0, 1;
    %store/vec4 v0x57a607d1cc40_0, 0, 1;
    %vpi_call/w 9 90 "$display", "[SCOREBOARD] AW CAPTURED: ADDR=%h", v0x57a607d1cce0_0 {0 0 0};
T_15.2 ;
    %load/vec4 v0x57a607d1ddb0_0;
    %flag_set/vec4 9;
    %flag_get/vec4 9;
    %jmp/0 T_15.7, 9;
    %load/vec4 v0x57a607d1dc50_0;
    %and;
T_15.7;
    %flag_set/vec4 8;
    %jmp/0xz  T_15.5, 8;
    %load/vec4 v0x57a607d1db90_0;
    %store/vec4 v0x57a607d1d650_0, 0, 32;
    %load/vec4 v0x57a607d1dcf0_0;
    %store/vec4 v0x57a607d1d730_0, 0, 4;
    %pushi/vec4 1, 0, 1;
    %store/vec4 v0x57a607d1dad0_0, 0, 1;
    %vpi_call/w 9 108 "$display", "[SCOREBOARD] W CAPTURED: DATA=%h WSTRB=%b", v0x57a607d1db90_0, v0x57a607d1dcf0_0 {0 0 0};
T_15.5 ;
    %load/vec4 v0x57a607d1cc40_0;
    %flag_set/vec4 9;
    %flag_get/vec4 9;
    %jmp/0 T_15.10, 9;
    %load/vec4 v0x57a607d1dad0_0;
    %and;
T_15.10;
    %flag_set/vec4 8;
    %jmp/0xz  T_15.8, 8;
    %load/vec4 v0x57a607d1d0e0_0;
    %parti/s 28, 4, 4;
    %cmpi/e 0, 0, 28;
    %flag_mov 8, 4;
    %jmp/0 T_15.17, 8;
    %load/vec4 v0x57a607d1d0e0_0;
    %parti/s 4, 2, 3;
    %jmp/1 T_15.18, 8;
T_15.17 ; End of true expr.
    %pushi/vec4 15, 0, 4;
    %jmp/0 T_15.18, 8;
 ; End of false expr.
    %blend;
T_15.18;
    %dup/vec4;
    %pushi/vec4 0, 0, 4;
    %cmp/u;
    %jmp/1 T_15.11, 6;
    %dup/vec4;
    %pushi/vec4 1, 0, 4;
    %cmp/u;
    %jmp/1 T_15.12, 6;
    %dup/vec4;
    %pushi/vec4 2, 0, 4;
    %cmp/u;
    %jmp/1 T_15.13, 6;
    %dup/vec4;
    %pushi/vec4 3, 0, 4;
    %cmp/u;
    %jmp/1 T_15.14, 6;
    %jmp T_15.16;
T_15.11 ;
    %load/vec4 v0x57a607d1d730_0;
    %parti/s 1, 0, 2;
    %flag_set/vec4 8;
    %jmp/0xz  T_15.19, 8;
    %load/vec4 v0x57a607d1d650_0;
    %parti/s 8, 0, 2;
    %ix/load 4, 0, 0;
    %flag_set/imm 4, 0;
    %store/vec4 v0x57a607d1d1c0_0, 4, 8;
T_15.19 ;
    %load/vec4 v0x57a607d1d730_0;
    %parti/s 1, 1, 2;
    %flag_set/vec4 8;
    %jmp/0xz  T_15.21, 8;
    %load/vec4 v0x57a607d1d650_0;
    %parti/s 8, 8, 5;
    %ix/load 4, 8, 0;
    %flag_set/imm 4, 0;
    %store/vec4 v0x57a607d1d1c0_0, 4, 8;
T_15.21 ;
    %load/vec4 v0x57a607d1d730_0;
    %parti/s 1, 2, 3;
    %flag_set/vec4 8;
    %jmp/0xz  T_15.23, 8;
    %load/vec4 v0x57a607d1d650_0;
    %parti/s 8, 16, 6;
    %ix/load 4, 16, 0;
    %flag_set/imm 4, 0;
    %store/vec4 v0x57a607d1d1c0_0, 4, 8;
T_15.23 ;
    %load/vec4 v0x57a607d1d730_0;
    %parti/s 1, 3, 3;
    %flag_set/vec4 8;
    %jmp/0xz  T_15.25, 8;
    %load/vec4 v0x57a607d1d650_0;
    %parti/s 8, 24, 6;
    %ix/load 4, 24, 0;
    %flag_set/imm 4, 0;
    %store/vec4 v0x57a607d1d1c0_0, 4, 8;
T_15.25 ;
    %jmp T_15.16;
T_15.12 ;
    %load/vec4 v0x57a607d1d730_0;
    %parti/s 1, 0, 2;
    %flag_set/vec4 8;
    %jmp/0xz  T_15.27, 8;
    %load/vec4 v0x57a607d1d650_0;
    %parti/s 8, 0, 2;
    %ix/load 4, 0, 0;
    %flag_set/imm 4, 0;
    %store/vec4 v0x57a607d1d2a0_0, 4, 8;
T_15.27 ;
    %load/vec4 v0x57a607d1d730_0;
    %parti/s 1, 1, 2;
    %flag_set/vec4 8;
    %jmp/0xz  T_15.29, 8;
    %load/vec4 v0x57a607d1d650_0;
    %parti/s 8, 8, 5;
    %ix/load 4, 8, 0;
    %flag_set/imm 4, 0;
    %store/vec4 v0x57a607d1d2a0_0, 4, 8;
T_15.29 ;
    %load/vec4 v0x57a607d1d730_0;
    %parti/s 1, 2, 3;
    %flag_set/vec4 8;
    %jmp/0xz  T_15.31, 8;
    %load/vec4 v0x57a607d1d650_0;
    %parti/s 8, 16, 6;
    %ix/load 4, 16, 0;
    %flag_set/imm 4, 0;
    %store/vec4 v0x57a607d1d2a0_0, 4, 8;
T_15.31 ;
    %load/vec4 v0x57a607d1d730_0;
    %parti/s 1, 3, 3;
    %flag_set/vec4 8;
    %jmp/0xz  T_15.33, 8;
    %load/vec4 v0x57a607d1d650_0;
    %parti/s 8, 24, 6;
    %ix/load 4, 24, 0;
    %flag_set/imm 4, 0;
    %store/vec4 v0x57a607d1d2a0_0, 4, 8;
T_15.33 ;
    %jmp T_15.16;
T_15.13 ;
    %load/vec4 v0x57a607d1d730_0;
    %parti/s 1, 0, 2;
    %flag_set/vec4 8;
    %jmp/0xz  T_15.35, 8;
    %load/vec4 v0x57a607d1d650_0;
    %parti/s 8, 0, 2;
    %ix/load 4, 0, 0;
    %flag_set/imm 4, 0;
    %store/vec4 v0x57a607d1d380_0, 4, 8;
T_15.35 ;
    %load/vec4 v0x57a607d1d730_0;
    %parti/s 1, 1, 2;
    %flag_set/vec4 8;
    %jmp/0xz  T_15.37, 8;
    %load/vec4 v0x57a607d1d650_0;
    %parti/s 8, 8, 5;
    %ix/load 4, 8, 0;
    %flag_set/imm 4, 0;
    %store/vec4 v0x57a607d1d380_0, 4, 8;
T_15.37 ;
    %load/vec4 v0x57a607d1d730_0;
    %parti/s 1, 2, 3;
    %flag_set/vec4 8;
    %jmp/0xz  T_15.39, 8;
    %load/vec4 v0x57a607d1d650_0;
    %parti/s 8, 16, 6;
    %ix/load 4, 16, 0;
    %flag_set/imm 4, 0;
    %store/vec4 v0x57a607d1d380_0, 4, 8;
T_15.39 ;
    %load/vec4 v0x57a607d1d730_0;
    %parti/s 1, 3, 3;
    %flag_set/vec4 8;
    %jmp/0xz  T_15.41, 8;
    %load/vec4 v0x57a607d1d650_0;
    %parti/s 8, 24, 6;
    %ix/load 4, 24, 0;
    %flag_set/imm 4, 0;
    %store/vec4 v0x57a607d1d380_0, 4, 8;
T_15.41 ;
    %jmp T_15.16;
T_15.14 ;
    %load/vec4 v0x57a607d1d730_0;
    %parti/s 1, 0, 2;
    %flag_set/vec4 8;
    %jmp/0xz  T_15.43, 8;
    %load/vec4 v0x57a607d1d650_0;
    %parti/s 8, 0, 2;
    %ix/load 4, 0, 0;
    %flag_set/imm 4, 0;
    %store/vec4 v0x57a607d1d460_0, 4, 8;
T_15.43 ;
    %load/vec4 v0x57a607d1d730_0;
    %parti/s 1, 1, 2;
    %flag_set/vec4 8;
    %jmp/0xz  T_15.45, 8;
    %load/vec4 v0x57a607d1d650_0;
    %parti/s 8, 8, 5;
    %ix/load 4, 8, 0;
    %flag_set/imm 4, 0;
    %store/vec4 v0x57a607d1d460_0, 4, 8;
T_15.45 ;
    %load/vec4 v0x57a607d1d730_0;
    %parti/s 1, 2, 3;
    %flag_set/vec4 8;
    %jmp/0xz  T_15.47, 8;
    %load/vec4 v0x57a607d1d650_0;
    %parti/s 8, 16, 6;
    %ix/load 4, 16, 0;
    %flag_set/imm 4, 0;
    %store/vec4 v0x57a607d1d460_0, 4, 8;
T_15.47 ;
    %load/vec4 v0x57a607d1d730_0;
    %parti/s 1, 3, 3;
    %flag_set/vec4 8;
    %jmp/0xz  T_15.49, 8;
    %load/vec4 v0x57a607d1d650_0;
    %parti/s 8, 24, 6;
    %ix/load 4, 24, 0;
    %flag_set/imm 4, 0;
    %store/vec4 v0x57a607d1d460_0, 4, 8;
T_15.49 ;
    %jmp T_15.16;
T_15.16 ;
    %pop/vec4 1;
    %pushi/vec4 0, 0, 1;
    %store/vec4 v0x57a607d1cc40_0, 0, 1;
    %pushi/vec4 0, 0, 1;
    %store/vec4 v0x57a607d1dad0_0, 0, 1;
T_15.8 ;
    %load/vec4 v0x57a607d1d040_0;
    %flag_set/vec4 9;
    %flag_get/vec4 9;
    %jmp/0 T_15.53, 9;
    %load/vec4 v0x57a607d1cee0_0;
    %and;
T_15.53;
    %flag_set/vec4 8;
    %jmp/0xz  T_15.51, 8;
    %load/vec4 v0x57a607d1cf80_0;
    %cmpi/e 0, 0, 2;
    %jmp/0xz  T_15.54, 4;
    %vpi_call/w 9 234 "$display", "[SCOREBOARD] WRITE RESPONSE PASS: BRESP=OKAY" {0 0 0};
    %jmp T_15.55;
T_15.54 ;
    %load/vec4 v0x57a607d1cf80_0;
    %cmpi/e 2, 0, 2;
    %jmp/0xz  T_15.56, 4;
    %vpi_call/w 9 242 "$display", "[SCOREBOARD] WRITE RESPONSE: SLVERR" {0 0 0};
    %jmp T_15.57;
T_15.56 ;
    %vpi_call/w 9 250 "$error", "[SCOREBOARD] INVALID BRESP=%b", v0x57a607d1cf80_0 {0 0 0};
T_15.57 ;
T_15.55 ;
T_15.51 ;
    %load/vec4 v0x57a607d1da30_0;
    %flag_set/vec4 9;
    %flag_get/vec4 9;
    %jmp/0 T_15.60, 9;
    %load/vec4 v0x57a607d1d8d0_0;
    %and;
T_15.60;
    %flag_set/vec4 8;
    %jmp/0xz  T_15.58, 8;
    %load/vec4 v0x57a607d1c9a0_0;
    %parti/s 28, 4, 4;
    %cmpi/e 0, 0, 28;
    %flag_mov 8, 4;
    %jmp/0 T_15.67, 8;
    %load/vec4 v0x57a607d1c9a0_0;
    %parti/s 4, 2, 3;
    %jmp/1 T_15.68, 8;
T_15.67 ; End of true expr.
    %pushi/vec4 15, 0, 4;
    %jmp/0 T_15.68, 8;
 ; End of false expr.
    %blend;
T_15.68;
    %dup/vec4;
    %pushi/vec4 0, 0, 4;
    %cmp/u;
    %jmp/1 T_15.61, 6;
    %dup/vec4;
    %pushi/vec4 1, 0, 4;
    %cmp/u;
    %jmp/1 T_15.62, 6;
    %dup/vec4;
    %pushi/vec4 2, 0, 4;
    %cmp/u;
    %jmp/1 T_15.63, 6;
    %dup/vec4;
    %pushi/vec4 3, 0, 4;
    %cmp/u;
    %jmp/1 T_15.64, 6;
    %load/vec4 v0x57a607d1d810_0;
    %cmpi/e 0, 0, 32;
    %jmp/0xz  T_15.69, 6;
    %vpi_call/w 9 347 "$display", "[SCOREBOARD] INVALID READ PASS: DATA=0" {0 0 0};
    %jmp T_15.70;
T_15.69 ;
    %vpi_call/w 9 351 "$error", "[SCOREBOARD] INVALID READ FAIL: DATA=%h", v0x57a607d1d810_0 {0 0 0};
T_15.70 ;
    %jmp T_15.66;
T_15.61 ;
    %load/vec4 v0x57a607d1d810_0;
    %load/vec4 v0x57a607d1d1c0_0;
    %cmp/e;
    %jmp/0xz  T_15.71, 6;
    %vpi_call/w 9 271 "$display", "[SCOREBOARD] READ PASS: ADDR=%h DATA=%h", v0x57a607d1c9a0_0, v0x57a607d1d810_0 {0 0 0};
    %jmp T_15.72;
T_15.71 ;
    %vpi_call/w 9 277 "$error", "[SCOREBOARD] READ FAIL: ADDR=%h EXPECTED=%h ACTUAL=%h", v0x57a607d1c9a0_0, v0x57a607d1d1c0_0, v0x57a607d1d810_0 {0 0 0};
T_15.72 ;
    %jmp T_15.66;
T_15.62 ;
    %load/vec4 v0x57a607d1d810_0;
    %load/vec4 v0x57a607d1d2a0_0;
    %cmp/e;
    %jmp/0xz  T_15.73, 6;
    %vpi_call/w 9 290 "$display", "[SCOREBOARD] READ PASS: ADDR=%h DATA=%h", v0x57a607d1c9a0_0, v0x57a607d1d810_0 {0 0 0};
    %jmp T_15.74;
T_15.73 ;
    %vpi_call/w 9 296 "$error", "[SCOREBOARD] READ FAIL: ADDR=%h EXPECTED=%h ACTUAL=%h", v0x57a607d1c9a0_0, v0x57a607d1d2a0_0, v0x57a607d1d810_0 {0 0 0};
T_15.74 ;
    %jmp T_15.66;
T_15.63 ;
    %load/vec4 v0x57a607d1d810_0;
    %load/vec4 v0x57a607d1d380_0;
    %cmp/e;
    %jmp/0xz  T_15.75, 6;
    %vpi_call/w 9 309 "$display", "[SCOREBOARD] READ PASS: ADDR=%h DATA=%h", v0x57a607d1c9a0_0, v0x57a607d1d810_0 {0 0 0};
    %jmp T_15.76;
T_15.75 ;
    %vpi_call/w 9 315 "$error", "[SCOREBOARD] READ FAIL: ADDR=%h EXPECTED=%h ACTUAL=%h", v0x57a607d1c9a0_0, v0x57a607d1d380_0, v0x57a607d1d810_0 {0 0 0};
T_15.76 ;
    %jmp T_15.66;
T_15.64 ;
    %load/vec4 v0x57a607d1d810_0;
    %load/vec4 v0x57a607d1d460_0;
    %cmp/e;
    %jmp/0xz  T_15.77, 6;
    %vpi_call/w 9 328 "$display", "[SCOREBOARD] READ PASS: ADDR=%h DATA=%h", v0x57a607d1c9a0_0, v0x57a607d1d810_0 {0 0 0};
    %jmp T_15.78;
T_15.77 ;
    %vpi_call/w 9 334 "$error", "[SCOREBOARD] READ FAIL: ADDR=%h EXPECTED=%h ACTUAL=%h", v0x57a607d1c9a0_0, v0x57a607d1d460_0, v0x57a607d1d810_0 {0 0 0};
T_15.78 ;
    %jmp T_15.66;
T_15.66 ;
    %pop/vec4 1;
T_15.58 ;
T_15.1 ;
    %jmp T_15;
    .thread T_15;
    .scope S_0x57a607c0bb50;
T_16 ;
    %pushi/vec4 0, 0, 32;
    %store/vec4 v0x57a607d124a0_0, 0, 32;
    %pushi/vec4 0, 0, 32;
    %store/vec4 v0x57a607d12580_0, 0, 32;
    %pushi/vec4 0, 0, 32;
    %store/vec4 v0x57a607d12660_0, 0, 32;
    %pushi/vec4 0, 0, 32;
    %store/vec4 v0x57a607d12740_0, 0, 32;
    %pushi/vec4 0, 0, 32;
    %store/vec4 v0x57a607d123c0_0, 0, 32;
    %pushi/vec4 0, 0, 32;
    %store/vec4 v0x57a607d119a0_0, 0, 32;
    %pushi/vec4 0, 0, 32;
    %store/vec4 v0x57a607d11a80_0, 0, 32;
    %pushi/vec4 0, 0, 32;
    %store/vec4 v0x57a607d11b60_0, 0, 32;
    %pushi/vec4 0, 0, 32;
    %store/vec4 v0x57a607d11c40_0, 0, 32;
    %pushi/vec4 0, 0, 32;
    %store/vec4 v0x57a607d118c0_0, 0, 32;
    %pushi/vec4 0, 0, 32;
    %store/vec4 v0x57a607d12d60_0, 0, 32;
    %pushi/vec4 0, 0, 32;
    %store/vec4 v0x57a607d129e0_0, 0, 32;
    %pushi/vec4 0, 0, 32;
    %store/vec4 v0x57a607d12ac0_0, 0, 32;
    %pushi/vec4 0, 0, 32;
    %store/vec4 v0x57a607d12ba0_0, 0, 32;
    %pushi/vec4 0, 0, 32;
    %store/vec4 v0x57a607d12c80_0, 0, 32;
    %pushi/vec4 0, 0, 32;
    %store/vec4 v0x57a607d12e40_0, 0, 32;
    %pushi/vec4 0, 0, 32;
    %store/vec4 v0x57a607d12900_0, 0, 32;
    %pushi/vec4 0, 0, 32;
    %store/vec4 v0x57a607d113c0_0, 0, 32;
    %pushi/vec4 0, 0, 32;
    %store/vec4 v0x57a607d114a0_0, 0, 32;
    %pushi/vec4 0, 0, 32;
    %store/vec4 v0x57a607d11ec0_0, 0, 32;
    %pushi/vec4 0, 0, 32;
    %store/vec4 v0x57a607d11fa0_0, 0, 32;
    %end;
    .thread T_16;
    .scope S_0x57a607c0bb50;
T_17 ;
    %wait E_0x57a607c544f0;
    %load/vec4 v0x57a607c1d950_0;
    %flag_set/vec4 8;
    %jmp/0xz  T_17.0, 8;
    %load/vec4 v0x57a607d11160_0;
    %flag_set/vec4 9;
    %flag_get/vec4 9;
    %jmp/0 T_17.4, 9;
    %load/vec4 v0x57a607d110a0_0;
    %and;
T_17.4;
    %flag_set/vec4 8;
    %jmp/0xz  T_17.2, 8;
    %load/vec4 v0x57a607c52560_0;
    %parti/s 28, 4, 4;
    %cmpi/e 0, 0, 28;
    %flag_mov 8, 4;
    %jmp/0 T_17.11, 8;
    %load/vec4 v0x57a607c52560_0;
    %parti/s 4, 2, 3;
    %jmp/1 T_17.12, 8;
T_17.11 ; End of true expr.
    %pushi/vec4 15, 0, 4;
    %jmp/0 T_17.12, 8;
 ; End of false expr.
    %blend;
T_17.12;
    %dup/vec4;
    %pushi/vec4 0, 0, 4;
    %cmp/u;
    %jmp/1 T_17.5, 6;
    %dup/vec4;
    %pushi/vec4 1, 0, 4;
    %cmp/u;
    %jmp/1 T_17.6, 6;
    %dup/vec4;
    %pushi/vec4 2, 0, 4;
    %cmp/u;
    %jmp/1 T_17.7, 6;
    %dup/vec4;
    %pushi/vec4 3, 0, 4;
    %cmp/u;
    %jmp/1 T_17.8, 6;
    %load/vec4 v0x57a607d123c0_0;
    %addi 1, 0, 32;
    %store/vec4 v0x57a607d123c0_0, 0, 32;
    %jmp T_17.10;
T_17.5 ;
    %load/vec4 v0x57a607d124a0_0;
    %addi 1, 0, 32;
    %store/vec4 v0x57a607d124a0_0, 0, 32;
    %jmp T_17.10;
T_17.6 ;
    %load/vec4 v0x57a607d12580_0;
    %addi 1, 0, 32;
    %store/vec4 v0x57a607d12580_0, 0, 32;
    %jmp T_17.10;
T_17.7 ;
    %load/vec4 v0x57a607d12660_0;
    %addi 1, 0, 32;
    %store/vec4 v0x57a607d12660_0, 0, 32;
    %jmp T_17.10;
T_17.8 ;
    %load/vec4 v0x57a607d12740_0;
    %addi 1, 0, 32;
    %store/vec4 v0x57a607d12740_0, 0, 32;
    %jmp T_17.10;
T_17.10 ;
    %pop/vec4 1;
T_17.2 ;
    %load/vec4 v0x57a607d12f20_0;
    %flag_set/vec4 9;
    %flag_get/vec4 9;
    %jmp/0 T_17.15, 9;
    %load/vec4 v0x57a607d12300_0;
    %and;
T_17.15;
    %flag_set/vec4 8;
    %jmp/0xz  T_17.13, 8;
    %load/vec4 v0x57a607d12820_0;
    %dup/vec4;
    %pushi/vec4 15, 0, 4;
    %cmp/u;
    %jmp/1 T_17.16, 6;
    %dup/vec4;
    %pushi/vec4 1, 0, 4;
    %cmp/u;
    %jmp/1 T_17.17, 6;
    %dup/vec4;
    %pushi/vec4 2, 0, 4;
    %cmp/u;
    %jmp/1 T_17.18, 6;
    %dup/vec4;
    %pushi/vec4 4, 0, 4;
    %cmp/u;
    %jmp/1 T_17.19, 6;
    %dup/vec4;
    %pushi/vec4 8, 0, 4;
    %cmp/u;
    %jmp/1 T_17.20, 6;
    %dup/vec4;
    %pushi/vec4 0, 0, 4;
    %cmp/u;
    %jmp/1 T_17.21, 6;
    %load/vec4 v0x57a607d12e40_0;
    %addi 1, 0, 32;
    %store/vec4 v0x57a607d12e40_0, 0, 32;
    %jmp T_17.23;
T_17.16 ;
    %load/vec4 v0x57a607d12d60_0;
    %addi 1, 0, 32;
    %store/vec4 v0x57a607d12d60_0, 0, 32;
    %jmp T_17.23;
T_17.17 ;
    %load/vec4 v0x57a607d129e0_0;
    %addi 1, 0, 32;
    %store/vec4 v0x57a607d129e0_0, 0, 32;
    %jmp T_17.23;
T_17.18 ;
    %load/vec4 v0x57a607d12ac0_0;
    %addi 1, 0, 32;
    %store/vec4 v0x57a607d12ac0_0, 0, 32;
    %jmp T_17.23;
T_17.19 ;
    %load/vec4 v0x57a607d12ba0_0;
    %addi 1, 0, 32;
    %store/vec4 v0x57a607d12ba0_0, 0, 32;
    %jmp T_17.23;
T_17.20 ;
    %load/vec4 v0x57a607d12c80_0;
    %addi 1, 0, 32;
    %store/vec4 v0x57a607d12c80_0, 0, 32;
    %jmp T_17.23;
T_17.21 ;
    %load/vec4 v0x57a607d12900_0;
    %addi 1, 0, 32;
    %store/vec4 v0x57a607d12900_0, 0, 32;
    %jmp T_17.23;
T_17.23 ;
    %pop/vec4 1;
T_17.13 ;
    %load/vec4 v0x57a607d11580_0;
    %flag_set/vec4 9;
    %flag_get/vec4 9;
    %jmp/0 T_17.26, 9;
    %load/vec4 v0x57a607d11220_0;
    %and;
T_17.26;
    %flag_set/vec4 8;
    %jmp/0xz  T_17.24, 8;
    %load/vec4 v0x57a607d112e0_0;
    %cmpi/e 0, 0, 2;
    %jmp/0xz  T_17.27, 4;
    %load/vec4 v0x57a607d113c0_0;
    %addi 1, 0, 32;
    %store/vec4 v0x57a607d113c0_0, 0, 32;
    %jmp T_17.28;
T_17.27 ;
    %load/vec4 v0x57a607d112e0_0;
    %cmpi/e 2, 0, 2;
    %jmp/0xz  T_17.29, 4;
    %load/vec4 v0x57a607d114a0_0;
    %addi 1, 0, 32;
    %store/vec4 v0x57a607d114a0_0, 0, 32;
T_17.29 ;
T_17.28 ;
T_17.24 ;
    %load/vec4 v0x57a607c3fe10_0;
    %flag_set/vec4 9;
    %flag_get/vec4 9;
    %jmp/0 T_17.33, 9;
    %load/vec4 v0x57a607bbcd20_0;
    %and;
T_17.33;
    %flag_set/vec4 8;
    %jmp/0xz  T_17.31, 8;
    %load/vec4 v0x57a607c28000_0;
    %parti/s 28, 4, 4;
    %cmpi/e 0, 0, 28;
    %flag_mov 8, 4;
    %jmp/0 T_17.40, 8;
    %load/vec4 v0x57a607c28000_0;
    %parti/s 4, 2, 3;
    %jmp/1 T_17.41, 8;
T_17.40 ; End of true expr.
    %pushi/vec4 15, 0, 4;
    %jmp/0 T_17.41, 8;
 ; End of false expr.
    %blend;
T_17.41;
    %dup/vec4;
    %pushi/vec4 0, 0, 4;
    %cmp/u;
    %jmp/1 T_17.34, 6;
    %dup/vec4;
    %pushi/vec4 1, 0, 4;
    %cmp/u;
    %jmp/1 T_17.35, 6;
    %dup/vec4;
    %pushi/vec4 2, 0, 4;
    %cmp/u;
    %jmp/1 T_17.36, 6;
    %dup/vec4;
    %pushi/vec4 3, 0, 4;
    %cmp/u;
    %jmp/1 T_17.37, 6;
    %load/vec4 v0x57a607d118c0_0;
    %addi 1, 0, 32;
    %store/vec4 v0x57a607d118c0_0, 0, 32;
    %jmp T_17.39;
T_17.34 ;
    %load/vec4 v0x57a607d119a0_0;
    %addi 1, 0, 32;
    %store/vec4 v0x57a607d119a0_0, 0, 32;
    %jmp T_17.39;
T_17.35 ;
    %load/vec4 v0x57a607d11a80_0;
    %addi 1, 0, 32;
    %store/vec4 v0x57a607d11a80_0, 0, 32;
    %jmp T_17.39;
T_17.36 ;
    %load/vec4 v0x57a607d11b60_0;
    %addi 1, 0, 32;
    %store/vec4 v0x57a607d11b60_0, 0, 32;
    %jmp T_17.39;
T_17.37 ;
    %load/vec4 v0x57a607d11c40_0;
    %addi 1, 0, 32;
    %store/vec4 v0x57a607d11c40_0, 0, 32;
    %jmp T_17.39;
T_17.39 ;
    %pop/vec4 1;
T_17.31 ;
    %load/vec4 v0x57a607d12080_0;
    %flag_set/vec4 9;
    %flag_get/vec4 9;
    %jmp/0 T_17.44, 9;
    %load/vec4 v0x57a607d11d20_0;
    %and;
T_17.44;
    %flag_set/vec4 8;
    %jmp/0xz  T_17.42, 8;
    %load/vec4 v0x57a607d11de0_0;
    %cmpi/e 0, 0, 2;
    %jmp/0xz  T_17.45, 4;
    %load/vec4 v0x57a607d11ec0_0;
    %addi 1, 0, 32;
    %store/vec4 v0x57a607d11ec0_0, 0, 32;
    %jmp T_17.46;
T_17.45 ;
    %load/vec4 v0x57a607d11de0_0;
    %cmpi/e 2, 0, 2;
    %jmp/0xz  T_17.47, 4;
    %load/vec4 v0x57a607d11fa0_0;
    %addi 1, 0, 32;
    %store/vec4 v0x57a607d11fa0_0, 0, 32;
T_17.47 ;
T_17.46 ;
T_17.42 ;
T_17.0 ;
    %jmp T_17;
    .thread T_17;
    .scope S_0x57a607c0bb50;
T_18 ;
    %pushi/vec4 21, 0, 32;
    %store/vec4 v0x57a607d12140_0, 0, 32;
    %pushi/vec4 0, 0, 32;
    %store/vec4 v0x57a607d11700_0, 0, 32;
    %load/vec4 v0x57a607d124a0_0;
    %cmpi/s 0, 0, 32;
    %flag_or 5, 4; GT is !LE
    %flag_inv 5;
    %jmp/0xz  T_18.0, 5;
    %load/vec4 v0x57a607d11700_0;
    %addi 1, 0, 32;
    %store/vec4 v0x57a607d11700_0, 0, 32;
T_18.0 ;
    %load/vec4 v0x57a607d12580_0;
    %cmpi/s 0, 0, 32;
    %flag_or 5, 4; GT is !LE
    %flag_inv 5;
    %jmp/0xz  T_18.2, 5;
    %load/vec4 v0x57a607d11700_0;
    %addi 1, 0, 32;
    %store/vec4 v0x57a607d11700_0, 0, 32;
T_18.2 ;
    %load/vec4 v0x57a607d12660_0;
    %cmpi/s 0, 0, 32;
    %flag_or 5, 4; GT is !LE
    %flag_inv 5;
    %jmp/0xz  T_18.4, 5;
    %load/vec4 v0x57a607d11700_0;
    %addi 1, 0, 32;
    %store/vec4 v0x57a607d11700_0, 0, 32;
T_18.4 ;
    %load/vec4 v0x57a607d12740_0;
    %cmpi/s 0, 0, 32;
    %flag_or 5, 4; GT is !LE
    %flag_inv 5;
    %jmp/0xz  T_18.6, 5;
    %load/vec4 v0x57a607d11700_0;
    %addi 1, 0, 32;
    %store/vec4 v0x57a607d11700_0, 0, 32;
T_18.6 ;
    %load/vec4 v0x57a607d123c0_0;
    %cmpi/s 0, 0, 32;
    %flag_or 5, 4; GT is !LE
    %flag_inv 5;
    %jmp/0xz  T_18.8, 5;
    %load/vec4 v0x57a607d11700_0;
    %addi 1, 0, 32;
    %store/vec4 v0x57a607d11700_0, 0, 32;
T_18.8 ;
    %load/vec4 v0x57a607d119a0_0;
    %cmpi/s 0, 0, 32;
    %flag_or 5, 4; GT is !LE
    %flag_inv 5;
    %jmp/0xz  T_18.10, 5;
    %load/vec4 v0x57a607d11700_0;
    %addi 1, 0, 32;
    %store/vec4 v0x57a607d11700_0, 0, 32;
T_18.10 ;
    %load/vec4 v0x57a607d11a80_0;
    %cmpi/s 0, 0, 32;
    %flag_or 5, 4; GT is !LE
    %flag_inv 5;
    %jmp/0xz  T_18.12, 5;
    %load/vec4 v0x57a607d11700_0;
    %addi 1, 0, 32;
    %store/vec4 v0x57a607d11700_0, 0, 32;
T_18.12 ;
    %load/vec4 v0x57a607d11b60_0;
    %cmpi/s 0, 0, 32;
    %flag_or 5, 4; GT is !LE
    %flag_inv 5;
    %jmp/0xz  T_18.14, 5;
    %load/vec4 v0x57a607d11700_0;
    %addi 1, 0, 32;
    %store/vec4 v0x57a607d11700_0, 0, 32;
T_18.14 ;
    %load/vec4 v0x57a607d11c40_0;
    %cmpi/s 0, 0, 32;
    %flag_or 5, 4; GT is !LE
    %flag_inv 5;
    %jmp/0xz  T_18.16, 5;
    %load/vec4 v0x57a607d11700_0;
    %addi 1, 0, 32;
    %store/vec4 v0x57a607d11700_0, 0, 32;
T_18.16 ;
    %load/vec4 v0x57a607d118c0_0;
    %cmpi/s 0, 0, 32;
    %flag_or 5, 4; GT is !LE
    %flag_inv 5;
    %jmp/0xz  T_18.18, 5;
    %load/vec4 v0x57a607d11700_0;
    %addi 1, 0, 32;
    %store/vec4 v0x57a607d11700_0, 0, 32;
T_18.18 ;
    %load/vec4 v0x57a607d12d60_0;
    %cmpi/s 0, 0, 32;
    %flag_or 5, 4; GT is !LE
    %flag_inv 5;
    %jmp/0xz  T_18.20, 5;
    %load/vec4 v0x57a607d11700_0;
    %addi 1, 0, 32;
    %store/vec4 v0x57a607d11700_0, 0, 32;
T_18.20 ;
    %load/vec4 v0x57a607d129e0_0;
    %cmpi/s 0, 0, 32;
    %flag_or 5, 4; GT is !LE
    %flag_inv 5;
    %jmp/0xz  T_18.22, 5;
    %load/vec4 v0x57a607d11700_0;
    %addi 1, 0, 32;
    %store/vec4 v0x57a607d11700_0, 0, 32;
T_18.22 ;
    %load/vec4 v0x57a607d12ac0_0;
    %cmpi/s 0, 0, 32;
    %flag_or 5, 4; GT is !LE
    %flag_inv 5;
    %jmp/0xz  T_18.24, 5;
    %load/vec4 v0x57a607d11700_0;
    %addi 1, 0, 32;
    %store/vec4 v0x57a607d11700_0, 0, 32;
T_18.24 ;
    %load/vec4 v0x57a607d12ba0_0;
    %cmpi/s 0, 0, 32;
    %flag_or 5, 4; GT is !LE
    %flag_inv 5;
    %jmp/0xz  T_18.26, 5;
    %load/vec4 v0x57a607d11700_0;
    %addi 1, 0, 32;
    %store/vec4 v0x57a607d11700_0, 0, 32;
T_18.26 ;
    %load/vec4 v0x57a607d12c80_0;
    %cmpi/s 0, 0, 32;
    %flag_or 5, 4; GT is !LE
    %flag_inv 5;
    %jmp/0xz  T_18.28, 5;
    %load/vec4 v0x57a607d11700_0;
    %addi 1, 0, 32;
    %store/vec4 v0x57a607d11700_0, 0, 32;
T_18.28 ;
    %load/vec4 v0x57a607d12e40_0;
    %cmpi/s 0, 0, 32;
    %flag_or 5, 4; GT is !LE
    %flag_inv 5;
    %jmp/0xz  T_18.30, 5;
    %load/vec4 v0x57a607d11700_0;
    %addi 1, 0, 32;
    %store/vec4 v0x57a607d11700_0, 0, 32;
T_18.30 ;
    %load/vec4 v0x57a607d12900_0;
    %cmpi/s 0, 0, 32;
    %flag_or 5, 4; GT is !LE
    %flag_inv 5;
    %jmp/0xz  T_18.32, 5;
    %load/vec4 v0x57a607d11700_0;
    %addi 1, 0, 32;
    %store/vec4 v0x57a607d11700_0, 0, 32;
T_18.32 ;
    %load/vec4 v0x57a607d113c0_0;
    %cmpi/s 0, 0, 32;
    %flag_or 5, 4; GT is !LE
    %flag_inv 5;
    %jmp/0xz  T_18.34, 5;
    %load/vec4 v0x57a607d11700_0;
    %addi 1, 0, 32;
    %store/vec4 v0x57a607d11700_0, 0, 32;
T_18.34 ;
    %load/vec4 v0x57a607d114a0_0;
    %cmpi/s 0, 0, 32;
    %flag_or 5, 4; GT is !LE
    %flag_inv 5;
    %jmp/0xz  T_18.36, 5;
    %load/vec4 v0x57a607d11700_0;
    %addi 1, 0, 32;
    %store/vec4 v0x57a607d11700_0, 0, 32;
T_18.36 ;
    %load/vec4 v0x57a607d11ec0_0;
    %cmpi/s 0, 0, 32;
    %flag_or 5, 4; GT is !LE
    %flag_inv 5;
    %jmp/0xz  T_18.38, 5;
    %load/vec4 v0x57a607d11700_0;
    %addi 1, 0, 32;
    %store/vec4 v0x57a607d11700_0, 0, 32;
T_18.38 ;
    %load/vec4 v0x57a607d11fa0_0;
    %cmpi/s 0, 0, 32;
    %flag_or 5, 4; GT is !LE
    %flag_inv 5;
    %jmp/0xz  T_18.40, 5;
    %load/vec4 v0x57a607d11700_0;
    %addi 1, 0, 32;
    %store/vec4 v0x57a607d11700_0, 0, 32;
T_18.40 ;
    %load/vec4 v0x57a607d11700_0;
    %cvt/rv/s;
    %pushi/real 1677721600, 4072; load=100.000
    %mul/wr;
    %load/vec4 v0x57a607d12140_0;
    %cvt/rv/s;
    %div/wr;
    %store/real v0x57a607d11640_0;
    %vpi_call/w 4 308 "$display", "\000" {0 0 0};
    %vpi_call/w 4 309 "$display", "==============================================" {0 0 0};
    %vpi_call/w 4 310 "$display", "       AXI4-LITE FUNCTIONAL COVERAGE" {0 0 0};
    %vpi_call/w 4 311 "$display", "==============================================" {0 0 0};
    %vpi_call/w 4 313 "$display", "WRITE REG0      = %0d", v0x57a607d124a0_0 {0 0 0};
    %vpi_call/w 4 314 "$display", "WRITE REG1      = %0d", v0x57a607d12580_0 {0 0 0};
    %vpi_call/w 4 315 "$display", "WRITE REG2      = %0d", v0x57a607d12660_0 {0 0 0};
    %vpi_call/w 4 316 "$display", "WRITE REG3      = %0d", v0x57a607d12740_0 {0 0 0};
    %vpi_call/w 4 317 "$display", "WRITE INVALID   = %0d", v0x57a607d123c0_0 {0 0 0};
    %vpi_call/w 4 319 "$display", "\000" {0 0 0};
    %vpi_call/w 4 321 "$display", "READ REG0       = %0d", v0x57a607d119a0_0 {0 0 0};
    %vpi_call/w 4 322 "$display", "READ REG1       = %0d", v0x57a607d11a80_0 {0 0 0};
    %vpi_call/w 4 323 "$display", "READ REG2       = %0d", v0x57a607d11b60_0 {0 0 0};
    %vpi_call/w 4 324 "$display", "READ REG3       = %0d", v0x57a607d11c40_0 {0 0 0};
    %vpi_call/w 4 325 "$display", "READ INVALID    = %0d", v0x57a607d118c0_0 {0 0 0};
    %vpi_call/w 4 327 "$display", "\000" {0 0 0};
    %vpi_call/w 4 329 "$display", "WSTRB 1111      = %0d", v0x57a607d12d60_0 {0 0 0};
    %vpi_call/w 4 330 "$display", "WSTRB 0001      = %0d", v0x57a607d129e0_0 {0 0 0};
    %vpi_call/w 4 331 "$display", "WSTRB 0010      = %0d", v0x57a607d12ac0_0 {0 0 0};
    %vpi_call/w 4 332 "$display", "WSTRB 0100      = %0d", v0x57a607d12ba0_0 {0 0 0};
    %vpi_call/w 4 333 "$display", "WSTRB 1000      = %0d", v0x57a607d12c80_0 {0 0 0};
    %vpi_call/w 4 334 "$display", "WSTRB PARTIAL   = %0d", v0x57a607d12e40_0 {0 0 0};
    %vpi_call/w 4 335 "$display", "WSTRB 0000      = %0d", v0x57a607d12900_0 {0 0 0};
    %vpi_call/w 4 337 "$display", "\000" {0 0 0};
    %vpi_call/w 4 339 "$display", "BRESP OKAY      = %0d", v0x57a607d113c0_0 {0 0 0};
    %vpi_call/w 4 340 "$display", "BRESP SLVERR    = %0d", v0x57a607d114a0_0 {0 0 0};
    %vpi_call/w 4 341 "$display", "RRESP OKAY      = %0d", v0x57a607d11ec0_0 {0 0 0};
    %vpi_call/w 4 342 "$display", "RRESP SLVERR    = %0d", v0x57a607d11fa0_0 {0 0 0};
    %vpi_call/w 4 344 "$display", "\000" {0 0 0};
    %vpi_call/w 4 346 "$display", "COVERED BINS    = %0d / %0d", v0x57a607d11700_0, v0x57a607d12140_0 {0 0 0};
    %vpi_call/w 4 350 "$display", "COVERAGE        = %0.2f%%", v0x57a607d11640_0 {0 0 0};
    %vpi_call/w 4 353 "$display", "==============================================" {0 0 0};
    %end;
    .thread T_18, $final;
    .scope S_0x57a607d153d0;
T_19 ;
    %pushi/vec4 0, 0, 1;
    %store/vec4 v0x57a607d17520_0, 0, 1;
    %end;
    .thread T_19;
    .scope S_0x57a607c0b920;
T_20 ;
    %pushi/vec4 0, 0, 32;
    %store/vec4 v0x57a607d1e8d0_0, 0, 32;
    %pushi/vec4 0, 0, 32;
    %store/vec4 v0x57a607d1e7f0_0, 0, 32;
    %end;
    .thread T_20, $init;
    .scope S_0x57a607c0b920;
T_21 ;
    %pushi/vec4 0, 0, 1;
    %store/vec4 v0x57a607c9e930_0, 0, 1;
T_21.0 ;
    %delay 5000, 0;
    %load/vec4 v0x57a607c9e930_0;
    %inv;
    %store/vec4 v0x57a607c9e930_0, 0, 1;
    %jmp T_21.0;
    %end;
    .thread T_21;
    .scope S_0x57a607c0b920;
T_22 ;
    %pushi/vec4 0, 0, 1;
    %store/vec4 v0x57a607d1e230_0, 0, 1;
    %pushi/vec4 5, 0, 32;
T_22.0 %dup/vec4;
    %pushi/vec4 0, 0, 32;
    %cmp/s;
    %jmp/1xz T_22.1, 5;
    %jmp/1 T_22.1, 4;
    %pushi/vec4 1, 0, 32;
    %sub;
    %wait E_0x57a607c544f0;
    %jmp T_22.0;
T_22.1 ;
    %pop/vec4 1;
    %pushi/vec4 1, 0, 1;
    %store/vec4 v0x57a607d1e230_0, 0, 1;
    %vpi_call/w 3 73 "$display", "\000" {0 0 0};
    %vpi_call/w 3 74 "$display", "==============================================" {0 0 0};
    %vpi_call/w 3 75 "$display", "RESET RELEASED" {0 0 0};
    %vpi_call/w 3 76 "$display", "==============================================" {0 0 0};
    %vpi_call/w 3 77 "$display", "\000" {0 0 0};
    %end;
    .thread T_22;
    .scope S_0x57a607c0b920;
T_23 ;
T_23.0 ;
    %load/vec4 v0x57a607d1e230_0;
    %pushi/vec4 1, 0, 1;
    %cmp/e;
    %flag_get/vec4 4;
    %cmpi/ne 1, 0, 1;
    %jmp/0xz T_23.1, 6;
    %wait E_0x57a607c53b40;
    %jmp T_23.0;
T_23.1 ;
    %wait E_0x57a607c544f0;
    %vpi_call/w 3 328 "$display", "\000" {0 0 0};
    %vpi_call/w 3 329 "$display", "==============================================" {0 0 0};
    %vpi_call/w 3 330 "$display", "      AXI4-LITE BASIC TEST START" {0 0 0};
    %vpi_call/w 3 331 "$display", "==============================================" {0 0 0};
    %vpi_call/w 3 332 "$display", "\000" {0 0 0};
    %alloc S_0x57a607d18ab0;
    %pushi/vec4 0, 0, 32;
    %store/vec4 v0x57a607d18cb0_0, 0, 32;
    %pushi/vec4 305419896, 0, 32;
    %store/vec4 v0x57a607d18d90_0, 0, 32;
    %pushi/vec4 15, 0, 4;
    %store/vec4 v0x57a607d18e70_0, 0, 4;
    %fork TD_tb_top.master.write, S_0x57a607d18ab0;
    %join;
    %free S_0x57a607d18ab0;
    %alloc S_0x57a607d186d0;
    %pushi/vec4 0, 0, 32;
    %store/vec4 v0x57a607d188d0_0, 0, 32;
    %fork TD_tb_top.master.read, S_0x57a607d186d0;
    %join;
    %load/vec4 v0x57a607d189d0_0;
    %store/vec4 v0x57a607d1ea70_0, 0, 32;
    %free S_0x57a607d186d0;
    %load/vec4 v0x57a607d1ea70_0;
    %cmpi/e 305419896, 0, 32;
    %jmp/0xz  T_23.2, 6;
    %vpi_call/w 3 352 "$display", "[TEST] REG0 PASS" {0 0 0};
    %jmp T_23.3;
T_23.2 ;
    %vpi_call/w 3 356 "$error", "[TEST] REG0 FAIL EXPECTED=%h ACTUAL=%h", 32'b00010010001101000101011001111000, v0x57a607d1ea70_0 {0 0 0};
T_23.3 ;
    %alloc S_0x57a607d18ab0;
    %pushi/vec4 4, 0, 32;
    %store/vec4 v0x57a607d18cb0_0, 0, 32;
    %pushi/vec4 2864434397, 0, 32;
    %store/vec4 v0x57a607d18d90_0, 0, 32;
    %pushi/vec4 15, 0, 4;
    %store/vec4 v0x57a607d18e70_0, 0, 4;
    %fork TD_tb_top.master.write, S_0x57a607d18ab0;
    %join;
    %free S_0x57a607d18ab0;
    %alloc S_0x57a607d186d0;
    %pushi/vec4 4, 0, 32;
    %store/vec4 v0x57a607d188d0_0, 0, 32;
    %fork TD_tb_top.master.read, S_0x57a607d186d0;
    %join;
    %load/vec4 v0x57a607d189d0_0;
    %store/vec4 v0x57a607d1ea70_0, 0, 32;
    %free S_0x57a607d186d0;
    %load/vec4 v0x57a607d1ea70_0;
    %cmpi/e 2864434397, 0, 32;
    %jmp/0xz  T_23.4, 6;
    %vpi_call/w 3 379 "$display", "[TEST] REG1 PASS" {0 0 0};
    %jmp T_23.5;
T_23.4 ;
    %vpi_call/w 3 383 "$error", "[TEST] REG1 FAIL EXPECTED=%h ACTUAL=%h", 32'b10101010101110111100110011011101, v0x57a607d1ea70_0 {0 0 0};
T_23.5 ;
    %alloc S_0x57a607d18ab0;
    %pushi/vec4 8, 0, 32;
    %store/vec4 v0x57a607d18cb0_0, 0, 32;
    %pushi/vec4 3735928559, 0, 32;
    %store/vec4 v0x57a607d18d90_0, 0, 32;
    %pushi/vec4 15, 0, 4;
    %store/vec4 v0x57a607d18e70_0, 0, 4;
    %fork TD_tb_top.master.write, S_0x57a607d18ab0;
    %join;
    %free S_0x57a607d18ab0;
    %alloc S_0x57a607d186d0;
    %pushi/vec4 8, 0, 32;
    %store/vec4 v0x57a607d188d0_0, 0, 32;
    %fork TD_tb_top.master.read, S_0x57a607d186d0;
    %join;
    %load/vec4 v0x57a607d189d0_0;
    %store/vec4 v0x57a607d1ea70_0, 0, 32;
    %free S_0x57a607d186d0;
    %load/vec4 v0x57a607d1ea70_0;
    %cmpi/e 3735928559, 0, 32;
    %jmp/0xz  T_23.6, 6;
    %vpi_call/w 3 406 "$display", "[TEST] REG2 PASS" {0 0 0};
    %jmp T_23.7;
T_23.6 ;
    %vpi_call/w 3 410 "$error", "[TEST] REG2 FAIL EXPECTED=%h ACTUAL=%h", 32'b11011110101011011011111011101111, v0x57a607d1ea70_0 {0 0 0};
T_23.7 ;
    %alloc S_0x57a607d18ab0;
    %pushi/vec4 12, 0, 32;
    %store/vec4 v0x57a607d18cb0_0, 0, 32;
    %pushi/vec4 3405691582, 0, 32;
    %store/vec4 v0x57a607d18d90_0, 0, 32;
    %pushi/vec4 15, 0, 4;
    %store/vec4 v0x57a607d18e70_0, 0, 4;
    %fork TD_tb_top.master.write, S_0x57a607d18ab0;
    %join;
    %free S_0x57a607d18ab0;
    %alloc S_0x57a607d186d0;
    %pushi/vec4 12, 0, 32;
    %store/vec4 v0x57a607d188d0_0, 0, 32;
    %fork TD_tb_top.master.read, S_0x57a607d186d0;
    %join;
    %load/vec4 v0x57a607d189d0_0;
    %store/vec4 v0x57a607d1ea70_0, 0, 32;
    %free S_0x57a607d186d0;
    %load/vec4 v0x57a607d1ea70_0;
    %cmpi/e 3405691582, 0, 32;
    %jmp/0xz  T_23.8, 6;
    %vpi_call/w 3 434 "$display", "[TEST] REG3 PASS" {0 0 0};
    %jmp T_23.9;
T_23.8 ;
    %vpi_call/w 3 438 "$error", "[TEST] REG3 FAIL EXPECTED=%h ACTUAL=%h", 32'b11001010111111101011101010111110, v0x57a607d1ea70_0 {0 0 0};
T_23.9 ;
    %alloc S_0x57a607d18ab0;
    %pushi/vec4 0, 0, 32;
    %store/vec4 v0x57a607d18cb0_0, 0, 32;
    %pushi/vec4 4294967295, 0, 32;
    %store/vec4 v0x57a607d18d90_0, 0, 32;
    %pushi/vec4 15, 0, 4;
    %store/vec4 v0x57a607d18e70_0, 0, 4;
    %fork TD_tb_top.master.write, S_0x57a607d18ab0;
    %join;
    %free S_0x57a607d18ab0;
    %alloc S_0x57a607d18ab0;
    %pushi/vec4 0, 0, 32;
    %store/vec4 v0x57a607d18cb0_0, 0, 32;
    %pushi/vec4 287454020, 0, 32;
    %store/vec4 v0x57a607d18d90_0, 0, 32;
    %pushi/vec4 1, 0, 4;
    %store/vec4 v0x57a607d18e70_0, 0, 4;
    %fork TD_tb_top.master.write, S_0x57a607d18ab0;
    %join;
    %free S_0x57a607d18ab0;
    %alloc S_0x57a607d186d0;
    %pushi/vec4 0, 0, 32;
    %store/vec4 v0x57a607d188d0_0, 0, 32;
    %fork TD_tb_top.master.read, S_0x57a607d186d0;
    %join;
    %load/vec4 v0x57a607d189d0_0;
    %store/vec4 v0x57a607d1ea70_0, 0, 32;
    %free S_0x57a607d186d0;
    %load/vec4 v0x57a607d1ea70_0;
    %cmpi/e 4294967108, 0, 32;
    %jmp/0xz  T_23.10, 6;
    %vpi_call/w 3 453 "$display", "[TEST] %s PASS", "WSTRB 0001" {0 0 0};
    %load/vec4 v0x57a607d1e8d0_0;
    %addi 1, 0, 32;
    %store/vec4 v0x57a607d1e8d0_0, 0, 32;
    %jmp T_23.11;
T_23.10 ;
    %vpi_call/w 3 456 "$display", "[TEST] %s FAIL EXPECTED=%h ACTUAL=%h", "WSTRB 0001", 32'b11111111111111111111111101000100, v0x57a607d1ea70_0 {0 0 0};
    %load/vec4 v0x57a607d1e7f0_0;
    %addi 1, 0, 32;
    %store/vec4 v0x57a607d1e7f0_0, 0, 32;
T_23.11 ;
    %alloc S_0x57a607d18ab0;
    %pushi/vec4 0, 0, 32;
    %store/vec4 v0x57a607d18cb0_0, 0, 32;
    %pushi/vec4 287454020, 0, 32;
    %store/vec4 v0x57a607d18d90_0, 0, 32;
    %pushi/vec4 2, 0, 4;
    %store/vec4 v0x57a607d18e70_0, 0, 4;
    %fork TD_tb_top.master.write, S_0x57a607d18ab0;
    %join;
    %free S_0x57a607d18ab0;
    %alloc S_0x57a607d186d0;
    %pushi/vec4 0, 0, 32;
    %store/vec4 v0x57a607d188d0_0, 0, 32;
    %fork TD_tb_top.master.read, S_0x57a607d186d0;
    %join;
    %load/vec4 v0x57a607d189d0_0;
    %store/vec4 v0x57a607d1ea70_0, 0, 32;
    %free S_0x57a607d186d0;
    %load/vec4 v0x57a607d1ea70_0;
    %cmpi/e 4294914884, 0, 32;
    %jmp/0xz  T_23.12, 6;
    %vpi_call/w 3 457 "$display", "[TEST] %s PASS", "WSTRB 0010" {0 0 0};
    %load/vec4 v0x57a607d1e8d0_0;
    %addi 1, 0, 32;
    %store/vec4 v0x57a607d1e8d0_0, 0, 32;
    %jmp T_23.13;
T_23.12 ;
    %vpi_call/w 3 460 "$display", "[TEST] %s FAIL EXPECTED=%h ACTUAL=%h", "WSTRB 0010", 32'b11111111111111110011001101000100, v0x57a607d1ea70_0 {0 0 0};
    %load/vec4 v0x57a607d1e7f0_0;
    %addi 1, 0, 32;
    %store/vec4 v0x57a607d1e7f0_0, 0, 32;
T_23.13 ;
    %alloc S_0x57a607d18ab0;
    %pushi/vec4 0, 0, 32;
    %store/vec4 v0x57a607d18cb0_0, 0, 32;
    %pushi/vec4 287454020, 0, 32;
    %store/vec4 v0x57a607d18d90_0, 0, 32;
    %pushi/vec4 4, 0, 4;
    %store/vec4 v0x57a607d18e70_0, 0, 4;
    %fork TD_tb_top.master.write, S_0x57a607d18ab0;
    %join;
    %free S_0x57a607d18ab0;
    %alloc S_0x57a607d186d0;
    %pushi/vec4 0, 0, 32;
    %store/vec4 v0x57a607d188d0_0, 0, 32;
    %fork TD_tb_top.master.read, S_0x57a607d186d0;
    %join;
    %load/vec4 v0x57a607d189d0_0;
    %store/vec4 v0x57a607d1ea70_0, 0, 32;
    %free S_0x57a607d186d0;
    %load/vec4 v0x57a607d1ea70_0;
    %cmpi/e 4280431428, 0, 32;
    %jmp/0xz  T_23.14, 6;
    %vpi_call/w 3 461 "$display", "[TEST] %s PASS", "WSTRB 0100" {0 0 0};
    %load/vec4 v0x57a607d1e8d0_0;
    %addi 1, 0, 32;
    %store/vec4 v0x57a607d1e8d0_0, 0, 32;
    %jmp T_23.15;
T_23.14 ;
    %vpi_call/w 3 464 "$display", "[TEST] %s FAIL EXPECTED=%h ACTUAL=%h", "WSTRB 0100", 32'b11111111001000100011001101000100, v0x57a607d1ea70_0 {0 0 0};
    %load/vec4 v0x57a607d1e7f0_0;
    %addi 1, 0, 32;
    %store/vec4 v0x57a607d1e7f0_0, 0, 32;
T_23.15 ;
    %alloc S_0x57a607d18ab0;
    %pushi/vec4 0, 0, 32;
    %store/vec4 v0x57a607d18cb0_0, 0, 32;
    %pushi/vec4 287454020, 0, 32;
    %store/vec4 v0x57a607d18d90_0, 0, 32;
    %pushi/vec4 8, 0, 4;
    %store/vec4 v0x57a607d18e70_0, 0, 4;
    %fork TD_tb_top.master.write, S_0x57a607d18ab0;
    %join;
    %free S_0x57a607d18ab0;
    %alloc S_0x57a607d186d0;
    %pushi/vec4 0, 0, 32;
    %store/vec4 v0x57a607d188d0_0, 0, 32;
    %fork TD_tb_top.master.read, S_0x57a607d186d0;
    %join;
    %load/vec4 v0x57a607d189d0_0;
    %store/vec4 v0x57a607d1ea70_0, 0, 32;
    %free S_0x57a607d186d0;
    %load/vec4 v0x57a607d1ea70_0;
    %cmpi/e 287454020, 0, 32;
    %jmp/0xz  T_23.16, 6;
    %vpi_call/w 3 465 "$display", "[TEST] %s PASS", "WSTRB 1000" {0 0 0};
    %load/vec4 v0x57a607d1e8d0_0;
    %addi 1, 0, 32;
    %store/vec4 v0x57a607d1e8d0_0, 0, 32;
    %jmp T_23.17;
T_23.16 ;
    %vpi_call/w 3 468 "$display", "[TEST] %s FAIL EXPECTED=%h ACTUAL=%h", "WSTRB 1000", 32'b00010001001000100011001101000100, v0x57a607d1ea70_0 {0 0 0};
    %load/vec4 v0x57a607d1e7f0_0;
    %addi 1, 0, 32;
    %store/vec4 v0x57a607d1e7f0_0, 0, 32;
T_23.17 ;
    %alloc S_0x57a607d18ab0;
    %pushi/vec4 0, 0, 32;
    %store/vec4 v0x57a607d18cb0_0, 0, 32;
    %pushi/vec4 2864434397, 0, 32;
    %store/vec4 v0x57a607d18d90_0, 0, 32;
    %pushi/vec4 5, 0, 4;
    %store/vec4 v0x57a607d18e70_0, 0, 4;
    %fork TD_tb_top.master.write, S_0x57a607d18ab0;
    %join;
    %free S_0x57a607d18ab0;
    %alloc S_0x57a607d186d0;
    %pushi/vec4 0, 0, 32;
    %store/vec4 v0x57a607d188d0_0, 0, 32;
    %fork TD_tb_top.master.read, S_0x57a607d186d0;
    %join;
    %load/vec4 v0x57a607d189d0_0;
    %store/vec4 v0x57a607d1ea70_0, 0, 32;
    %free S_0x57a607d186d0;
    %load/vec4 v0x57a607d1ea70_0;
    %cmpi/e 297481181, 0, 32;
    %jmp/0xz  T_23.18, 6;
    %vpi_call/w 3 469 "$display", "[TEST] %s PASS", "WSTRB 0101 partial" {0 0 0};
    %load/vec4 v0x57a607d1e8d0_0;
    %addi 1, 0, 32;
    %store/vec4 v0x57a607d1e8d0_0, 0, 32;
    %jmp T_23.19;
T_23.18 ;
    %vpi_call/w 3 472 "$display", "[TEST] %s FAIL EXPECTED=%h ACTUAL=%h", "WSTRB 0101 partial", 32'b00010001101110110011001111011101, v0x57a607d1ea70_0 {0 0 0};
    %load/vec4 v0x57a607d1e7f0_0;
    %addi 1, 0, 32;
    %store/vec4 v0x57a607d1e7f0_0, 0, 32;
T_23.19 ;
    %alloc S_0x57a607d18ab0;
    %pushi/vec4 0, 0, 32;
    %store/vec4 v0x57a607d18cb0_0, 0, 32;
    %pushi/vec4 0, 0, 32;
    %store/vec4 v0x57a607d18d90_0, 0, 32;
    %pushi/vec4 0, 0, 4;
    %store/vec4 v0x57a607d18e70_0, 0, 4;
    %fork TD_tb_top.master.write, S_0x57a607d18ab0;
    %join;
    %free S_0x57a607d18ab0;
    %alloc S_0x57a607d186d0;
    %pushi/vec4 0, 0, 32;
    %store/vec4 v0x57a607d188d0_0, 0, 32;
    %fork TD_tb_top.master.read, S_0x57a607d186d0;
    %join;
    %load/vec4 v0x57a607d189d0_0;
    %store/vec4 v0x57a607d1ea70_0, 0, 32;
    %free S_0x57a607d186d0;
    %load/vec4 v0x57a607d1ea70_0;
    %cmpi/e 297481181, 0, 32;
    %jmp/0xz  T_23.20, 6;
    %vpi_call/w 3 473 "$display", "[TEST] %s PASS", "WSTRB 0000 no change" {0 0 0};
    %load/vec4 v0x57a607d1e8d0_0;
    %addi 1, 0, 32;
    %store/vec4 v0x57a607d1e8d0_0, 0, 32;
    %jmp T_23.21;
T_23.20 ;
    %vpi_call/w 3 476 "$display", "[TEST] %s FAIL EXPECTED=%h ACTUAL=%h", "WSTRB 0000 no change", 32'b00010001101110110011001111011101, v0x57a607d1ea70_0 {0 0 0};
    %load/vec4 v0x57a607d1e7f0_0;
    %addi 1, 0, 32;
    %store/vec4 v0x57a607d1e7f0_0, 0, 32;
T_23.21 ;
    %alloc S_0x57a607d18ab0;
    %pushi/vec4 268435456, 0, 32;
    %store/vec4 v0x57a607d18cb0_0, 0, 32;
    %pushi/vec4 3735928559, 0, 32;
    %store/vec4 v0x57a607d18d90_0, 0, 32;
    %pushi/vec4 15, 0, 4;
    %store/vec4 v0x57a607d18e70_0, 0, 4;
    %fork TD_tb_top.master.write, S_0x57a607d18ab0;
    %join;
    %free S_0x57a607d18ab0;
    %alloc S_0x57a607d186d0;
    %pushi/vec4 0, 0, 32;
    %store/vec4 v0x57a607d188d0_0, 0, 32;
    %fork TD_tb_top.master.read, S_0x57a607d186d0;
    %join;
    %load/vec4 v0x57a607d189d0_0;
    %store/vec4 v0x57a607d1ea70_0, 0, 32;
    %free S_0x57a607d186d0;
    %load/vec4 v0x57a607d1ea70_0;
    %cmpi/e 297481181, 0, 32;
    %jmp/0xz  T_23.22, 6;
    %vpi_call/w 3 477 "$display", "[TEST] %s PASS", "INVALID WRITE 10000000" {0 0 0};
    %load/vec4 v0x57a607d1e8d0_0;
    %addi 1, 0, 32;
    %store/vec4 v0x57a607d1e8d0_0, 0, 32;
    %jmp T_23.23;
T_23.22 ;
    %vpi_call/w 3 480 "$display", "[TEST] %s FAIL EXPECTED=%h ACTUAL=%h", "INVALID WRITE 10000000", 32'b00010001101110110011001111011101, v0x57a607d1ea70_0 {0 0 0};
    %load/vec4 v0x57a607d1e7f0_0;
    %addi 1, 0, 32;
    %store/vec4 v0x57a607d1e7f0_0, 0, 32;
T_23.23 ;
    %alloc S_0x57a607d18ab0;
    %pushi/vec4 64, 0, 32;
    %store/vec4 v0x57a607d18cb0_0, 0, 32;
    %pushi/vec4 3735928559, 0, 32;
    %store/vec4 v0x57a607d18d90_0, 0, 32;
    %pushi/vec4 15, 0, 4;
    %store/vec4 v0x57a607d18e70_0, 0, 4;
    %fork TD_tb_top.master.write, S_0x57a607d18ab0;
    %join;
    %free S_0x57a607d18ab0;
    %alloc S_0x57a607d186d0;
    %pushi/vec4 0, 0, 32;
    %store/vec4 v0x57a607d188d0_0, 0, 32;
    %fork TD_tb_top.master.read, S_0x57a607d186d0;
    %join;
    %load/vec4 v0x57a607d189d0_0;
    %store/vec4 v0x57a607d1ea70_0, 0, 32;
    %free S_0x57a607d186d0;
    %load/vec4 v0x57a607d1ea70_0;
    %cmpi/e 297481181, 0, 32;
    %jmp/0xz  T_23.24, 6;
    %vpi_call/w 3 481 "$display", "[TEST] %s PASS", "INVALID WRITE 00000040" {0 0 0};
    %load/vec4 v0x57a607d1e8d0_0;
    %addi 1, 0, 32;
    %store/vec4 v0x57a607d1e8d0_0, 0, 32;
    %jmp T_23.25;
T_23.24 ;
    %vpi_call/w 3 484 "$display", "[TEST] %s FAIL EXPECTED=%h ACTUAL=%h", "INVALID WRITE 00000040", 32'b00010001101110110011001111011101, v0x57a607d1ea70_0 {0 0 0};
    %load/vec4 v0x57a607d1e7f0_0;
    %addi 1, 0, 32;
    %store/vec4 v0x57a607d1e7f0_0, 0, 32;
T_23.25 ;
    %alloc S_0x57a607d186d0;
    %pushi/vec4 268435456, 0, 32;
    %store/vec4 v0x57a607d188d0_0, 0, 32;
    %fork TD_tb_top.master.read, S_0x57a607d186d0;
    %join;
    %load/vec4 v0x57a607d189d0_0;
    %store/vec4 v0x57a607d1ea70_0, 0, 32;
    %free S_0x57a607d186d0;
    %load/vec4 v0x57a607d1ea70_0;
    %cmpi/e 0, 0, 32;
    %jmp/0xz  T_23.26, 6;
    %vpi_call/w 3 484 "$display", "[TEST] %s PASS", "INVALID READ data zero" {0 0 0};
    %load/vec4 v0x57a607d1e8d0_0;
    %addi 1, 0, 32;
    %store/vec4 v0x57a607d1e8d0_0, 0, 32;
    %jmp T_23.27;
T_23.26 ;
    %vpi_call/w 3 487 "$display", "[TEST] %s FAIL EXPECTED=%h ACTUAL=%h", "INVALID READ data zero", 32'b00000000000000000000000000000000, v0x57a607d1ea70_0 {0 0 0};
    %load/vec4 v0x57a607d1e7f0_0;
    %addi 1, 0, 32;
    %store/vec4 v0x57a607d1e7f0_0, 0, 32;
T_23.27 ;
    %vpi_call/w 3 484 "$display", "[TEST] EXTRA TESTS: %0d passed, %0d failed", v0x57a607d1e8d0_0, v0x57a607d1e7f0_0 {0 0 0};
    %vpi_call/w 3 489 "$display", "\000" {0 0 0};
    %vpi_call/w 3 490 "$display", "==============================================" {0 0 0};
    %vpi_call/w 3 491 "$display", "      AXI4-LITE BASIC TEST COMPLETE" {0 0 0};
    %vpi_call/w 3 492 "$display", "==============================================" {0 0 0};
    %vpi_call/w 3 493 "$display", "\000" {0 0 0};
    %delay 50000, 0;
    %vpi_call/w 3 497 "$finish" {0 0 0};
    %end;
    .thread T_23;
    .scope S_0x57a607c0b920;
T_24 ;
    %vpi_call/w 3 508 "$dumpfile", "sim/waves/axi4_lite.vcd" {0 0 0};
    %vpi_call/w 3 510 "$dumpvars", 32'sb00000000000000000000000000000000, S_0x57a607c0b920 {0 0 0};
    %end;
    .thread T_24;
# The file index is used to find the file name in the following table.
:file_names 10;
    "N/A";
    "<interactive>";
    "-";
    "tb/tb_top.sv";
    "tb/coverage/axi4_lite_coverage.sv";
    "rtl/axi4_lite_slave.sv";
    "tb/fault_injection/axi4_lite_fault_injection.sv";
    "tb/master/axi4_lite_master.sv";
    "tb/monitor/axi4_lite_monitor.sv";
    "tb/scoreboard/axi4_lite_scoreboard.sv";
