#! /usr/bin/vvp
:ivl_version "12.0 (stable)";
:ivl_delay_selection "TYPICAL";
:vpi_time_precision - 12;
:vpi_module "/usr/lib/x86_64-linux-gnu/ivl/system.vpi";
:vpi_module "/usr/lib/x86_64-linux-gnu/ivl/vhdl_sys.vpi";
:vpi_module "/usr/lib/x86_64-linux-gnu/ivl/vhdl_textio.vpi";
:vpi_module "/usr/lib/x86_64-linux-gnu/ivl/v2005_math.vpi";
:vpi_module "/usr/lib/x86_64-linux-gnu/ivl/va_math.vpi";
:vpi_module "/usr/lib/x86_64-linux-gnu/ivl/v2009.vpi";
S_0x632ab8fc3520 .scope package, "$unit" "$unit" 2 1;
 .timescale 0 0;
S_0x632ab8f95180 .scope module, "tb_top" "tb_top" 3 3;
 .timescale -9 -12;
P_0x632ab9033590 .param/l "ADDR_WIDTH" 0 3 5, +C4<00000000000000000000000000100000>;
P_0x632ab90335d0 .param/l "DATA_WIDTH" 0 3 6, +C4<00000000000000000000000000100000>;
v0x632ab9016d00_0 .var "aclk", 0 0;
v0x632ab90843f0_0 .net "araddr", 31 0, v0x632ab907f650_0;  1 drivers
v0x632ab90844b0_0 .var "aresetn", 0 0;
v0x632ab9084550_0 .net "arready", 0 0, L_0x632ab9085600;  1 drivers
v0x632ab90845f0_0 .net "arvalid", 0 0, v0x632ab907f850_0;  1 drivers
v0x632ab9084690_0 .net "awaddr", 31 0, v0x632ab907f940_0;  1 drivers
v0x632ab9084730_0 .net "awready", 0 0, L_0x632ab901b160;  1 drivers
v0x632ab90847d0_0 .net "awvalid", 0 0, v0x632ab907fa80_0;  1 drivers
v0x632ab9084870_0 .net "bready", 0 0, v0x632ab907fb20_0;  1 drivers
v0x632ab9084910_0 .net "bresp", 1 0, v0x632ab907adf0_0;  1 drivers
v0x632ab90849d0_0 .net "bvalid", 0 0, v0x632ab907aec0_0;  1 drivers
v0x632ab9084a70_0 .net "rdata", 31 0, v0x632ab907af90_0;  1 drivers
v0x632ab9084b30_0 .var "read_data", 31 0;
v0x632ab9084c10_0 .net "rready", 0 0, v0x632ab907fde0_0;  1 drivers
v0x632ab9084cb0_0 .net "rresp", 1 0, v0x632ab907b130_0;  1 drivers
v0x632ab9084d70_0 .net "rvalid", 0 0, v0x632ab907b200_0;  1 drivers
v0x632ab9084e10_0 .net "wdata", 31 0, v0x632ab907ffe0_0;  1 drivers
v0x632ab9084fe0_0 .net "wready", 0 0, L_0x632ab90173f0;  1 drivers
v0x632ab9085080_0 .net "wstrb", 3 0, v0x632ab9080250_0;  1 drivers
v0x632ab9085140_0 .net "wvalid", 0 0, v0x632ab9080310_0;  1 drivers
E_0x632ab8fdbdf0 .event anyedge, v0x632ab8fa63a0_0;
S_0x632ab8f953b0 .scope module, "coverage" "axi4_lite_coverage" 3 233, 4 1 0, S_0x632ab8f95180;
 .timescale 0 0;
    .port_info 0 /INPUT 1 "aclk";
    .port_info 1 /INPUT 1 "aresetn";
    .port_info 2 /INPUT 32 "awaddr";
    .port_info 3 /INPUT 1 "awvalid";
    .port_info 4 /INPUT 1 "awready";
    .port_info 5 /INPUT 32 "wdata";
    .port_info 6 /INPUT 4 "wstrb";
    .port_info 7 /INPUT 1 "wvalid";
    .port_info 8 /INPUT 1 "wready";
    .port_info 9 /INPUT 2 "bresp";
    .port_info 10 /INPUT 1 "bvalid";
    .port_info 11 /INPUT 1 "bready";
    .port_info 12 /INPUT 32 "araddr";
    .port_info 13 /INPUT 1 "arvalid";
    .port_info 14 /INPUT 1 "arready";
    .port_info 15 /INPUT 32 "rdata";
    .port_info 16 /INPUT 2 "rresp";
    .port_info 17 /INPUT 1 "rvalid";
    .port_info 18 /INPUT 1 "rready";
P_0x632ab9018360 .param/l "ADDR_WIDTH" 0 4 2, +C4<00000000000000000000000000100000>;
P_0x632ab90183a0 .param/l "DATA_WIDTH" 0 4 3, +C4<00000000000000000000000000100000>;
v0x632ab8f46330_0 .net "aclk", 0 0, v0x632ab9016d00_0;  1 drivers
v0x632ab8fb0a50_0 .net "araddr", 31 0, v0x632ab907f650_0;  alias, 1 drivers
v0x632ab8fa63a0_0 .net "aresetn", 0 0, v0x632ab90844b0_0;  1 drivers
v0x632ab8f46d20_0 .net "arready", 0 0, L_0x632ab9085600;  alias, 1 drivers
v0x632ab8fc80c0_0 .net "arvalid", 0 0, v0x632ab907f850_0;  alias, 1 drivers
v0x632ab8fda810_0 .net "awaddr", 31 0, v0x632ab907f940_0;  alias, 1 drivers
v0x632ab9077700_0 .net "awready", 0 0, L_0x632ab901b160;  alias, 1 drivers
v0x632ab90777c0_0 .net "awvalid", 0 0, v0x632ab907fa80_0;  alias, 1 drivers
v0x632ab9077880_0 .net "bready", 0 0, v0x632ab907fb20_0;  alias, 1 drivers
v0x632ab9077940_0 .net "bresp", 1 0, v0x632ab907adf0_0;  alias, 1 drivers
v0x632ab9077a20_0 .var/i "bresp_okay_count", 31 0;
v0x632ab9077b00_0 .var/i "bresp_slverr_count", 31 0;
v0x632ab9077be0_0 .net "bvalid", 0 0, v0x632ab907aec0_0;  alias, 1 drivers
v0x632ab9077ca0_0 .var/real "coverage_percentage", 0 0;
v0x632ab9077d60_0 .var/i "covered_items", 31 0;
v0x632ab9077e40_0 .net "rdata", 31 0, v0x632ab907af90_0;  alias, 1 drivers
v0x632ab9077f20_0 .var/i "read_invalid_count", 31 0;
v0x632ab9078000_0 .var/i "read_reg0_count", 31 0;
v0x632ab90780e0_0 .var/i "read_reg1_count", 31 0;
v0x632ab90781c0_0 .var/i "read_reg2_count", 31 0;
v0x632ab90782a0_0 .var/i "read_reg3_count", 31 0;
v0x632ab9078380_0 .net "rready", 0 0, v0x632ab907fde0_0;  alias, 1 drivers
v0x632ab9078440_0 .net "rresp", 1 0, v0x632ab907b130_0;  alias, 1 drivers
v0x632ab9078520_0 .var/i "rresp_okay_count", 31 0;
v0x632ab9078600_0 .var/i "rresp_slverr_count", 31 0;
v0x632ab90786e0_0 .net "rvalid", 0 0, v0x632ab907b200_0;  alias, 1 drivers
v0x632ab90787a0_0 .var/i "total_items", 31 0;
v0x632ab9078880_0 .net "wdata", 31 0, v0x632ab907ffe0_0;  alias, 1 drivers
v0x632ab9078960_0 .net "wready", 0 0, L_0x632ab90173f0;  alias, 1 drivers
v0x632ab9078a20_0 .var/i "write_invalid_count", 31 0;
v0x632ab9078b00_0 .var/i "write_reg0_count", 31 0;
v0x632ab9078be0_0 .var/i "write_reg1_count", 31 0;
v0x632ab9078cc0_0 .var/i "write_reg2_count", 31 0;
v0x632ab9078da0_0 .var/i "write_reg3_count", 31 0;
v0x632ab9078e80_0 .net "wstrb", 3 0, v0x632ab9080250_0;  alias, 1 drivers
v0x632ab9078f60_0 .var/i "wstrb_0000_count", 31 0;
v0x632ab9079040_0 .var/i "wstrb_0001_count", 31 0;
v0x632ab9079120_0 .var/i "wstrb_0010_count", 31 0;
v0x632ab9079200_0 .var/i "wstrb_0100_count", 31 0;
v0x632ab90792e0_0 .var/i "wstrb_1000_count", 31 0;
v0x632ab90793c0_0 .var/i "wstrb_1111_count", 31 0;
v0x632ab90794a0_0 .var/i "wstrb_partial_count", 31 0;
v0x632ab9079580_0 .net "wvalid", 0 0, v0x632ab9080310_0;  alias, 1 drivers
E_0x632ab8fdc7a0 .event posedge, v0x632ab8f46330_0;
S_0x632ab9079940 .scope module, "dut" "axi4_lite_slave" 3 88, 5 1 0, S_0x632ab8f95180;
 .timescale 0 0;
    .port_info 0 /INPUT 1 "aclk";
    .port_info 1 /INPUT 1 "aresetn";
    .port_info 2 /INPUT 32 "s_axi_awaddr";
    .port_info 3 /INPUT 1 "s_axi_awvalid";
    .port_info 4 /OUTPUT 1 "s_axi_awready";
    .port_info 5 /INPUT 32 "s_axi_wdata";
    .port_info 6 /INPUT 4 "s_axi_wstrb";
    .port_info 7 /INPUT 1 "s_axi_wvalid";
    .port_info 8 /OUTPUT 1 "s_axi_wready";
    .port_info 9 /OUTPUT 2 "s_axi_bresp";
    .port_info 10 /OUTPUT 1 "s_axi_bvalid";
    .port_info 11 /INPUT 1 "s_axi_bready";
    .port_info 12 /INPUT 32 "s_axi_araddr";
    .port_info 13 /INPUT 1 "s_axi_arvalid";
    .port_info 14 /OUTPUT 1 "s_axi_arready";
    .port_info 15 /OUTPUT 32 "s_axi_rdata";
    .port_info 16 /OUTPUT 2 "s_axi_rresp";
    .port_info 17 /OUTPUT 1 "s_axi_rvalid";
    .port_info 18 /INPUT 1 "s_axi_rready";
P_0x632ab9055670 .param/l "ADDR_WIDTH" 0 5 2, +C4<00000000000000000000000000100000>;
P_0x632ab90556b0 .param/l "DATA_WIDTH" 0 5 3, +C4<00000000000000000000000000100000>;
P_0x632ab90556f0 .param/l "RESP_OKAY" 1 5 46, C4<00>;
P_0x632ab9055730 .param/l "RESP_SLVERR" 1 5 47, C4<10>;
L_0x632ab901b160 .functor AND 1, L_0x632ab90851e0, L_0x632ab9085280, C4<1>, C4<1>;
L_0x632ab90173f0 .functor AND 1, L_0x632ab9085350, L_0x632ab90853f0, C4<1>, C4<1>;
v0x632ab9079e70_0 .net *"_ivl_1", 0 0, L_0x632ab90851e0;  1 drivers
v0x632ab9079f30_0 .net *"_ivl_3", 0 0, L_0x632ab9085280;  1 drivers
v0x632ab9079ff0_0 .net *"_ivl_7", 0 0, L_0x632ab9085350;  1 drivers
v0x632ab907a0c0_0 .net *"_ivl_9", 0 0, L_0x632ab90853f0;  1 drivers
v0x632ab907a180_0 .net "aclk", 0 0, v0x632ab9016d00_0;  alias, 1 drivers
v0x632ab907a270_0 .net "aresetn", 0 0, v0x632ab90844b0_0;  alias, 1 drivers
v0x632ab907a340_0 .var "aw_received", 0 0;
v0x632ab907a3e0_0 .var "awaddr_reg", 31 0;
v0x632ab907a4a0_0 .var "reg0", 31 0;
v0x632ab907a580_0 .var "reg1", 31 0;
v0x632ab907a660_0 .var "reg2", 31 0;
v0x632ab907a740_0 .var "reg3", 31 0;
v0x632ab907a820_0 .net "s_axi_araddr", 31 0, v0x632ab907f650_0;  alias, 1 drivers
v0x632ab907a910_0 .net "s_axi_arready", 0 0, L_0x632ab9085600;  alias, 1 drivers
v0x632ab907a9e0_0 .net "s_axi_arvalid", 0 0, v0x632ab907f850_0;  alias, 1 drivers
v0x632ab907aab0_0 .net "s_axi_awaddr", 31 0, v0x632ab907f940_0;  alias, 1 drivers
v0x632ab907ab80_0 .net "s_axi_awready", 0 0, L_0x632ab901b160;  alias, 1 drivers
v0x632ab907ac50_0 .net "s_axi_awvalid", 0 0, v0x632ab907fa80_0;  alias, 1 drivers
v0x632ab907ad20_0 .net "s_axi_bready", 0 0, v0x632ab907fb20_0;  alias, 1 drivers
v0x632ab907adf0_0 .var "s_axi_bresp", 1 0;
v0x632ab907aec0_0 .var "s_axi_bvalid", 0 0;
v0x632ab907af90_0 .var "s_axi_rdata", 31 0;
v0x632ab907b060_0 .net "s_axi_rready", 0 0, v0x632ab907fde0_0;  alias, 1 drivers
v0x632ab907b130_0 .var "s_axi_rresp", 1 0;
v0x632ab907b200_0 .var "s_axi_rvalid", 0 0;
v0x632ab907b2d0_0 .net "s_axi_wdata", 31 0, v0x632ab907ffe0_0;  alias, 1 drivers
v0x632ab907b3a0_0 .net "s_axi_wready", 0 0, L_0x632ab90173f0;  alias, 1 drivers
v0x632ab907b470_0 .net "s_axi_wstrb", 3 0, v0x632ab9080250_0;  alias, 1 drivers
v0x632ab907b540_0 .net "s_axi_wvalid", 0 0, v0x632ab9080310_0;  alias, 1 drivers
v0x632ab907b610_0 .var "w_received", 0 0;
v0x632ab907b6b0_0 .var "wdata_reg", 31 0;
v0x632ab907b750_0 .var "wstrb_reg", 3 0;
L_0x632ab90851e0 .reduce/nor v0x632ab907a340_0;
L_0x632ab9085280 .reduce/nor v0x632ab907aec0_0;
L_0x632ab9085350 .reduce/nor v0x632ab907b610_0;
L_0x632ab90853f0 .reduce/nor v0x632ab907aec0_0;
L_0x632ab9085600 .reduce/nor v0x632ab907b200_0;
S_0x632ab907ba30 .scope module, "fault_injection" "axi4_lite_fault_injection" 3 270, 6 1 0, S_0x632ab8f95180;
 .timescale 0 0;
    .port_info 0 /INPUT 1 "aclk";
    .port_info 1 /INPUT 1 "aresetn";
    .port_info 2 /INPUT 32 "awaddr";
    .port_info 3 /INPUT 1 "awvalid";
    .port_info 4 /INPUT 1 "awready";
    .port_info 5 /INPUT 32 "wdata";
    .port_info 6 /INPUT 4 "wstrb";
    .port_info 7 /INPUT 1 "wvalid";
    .port_info 8 /INPUT 1 "wready";
    .port_info 9 /INPUT 2 "bresp";
    .port_info 10 /INPUT 1 "bvalid";
    .port_info 11 /INPUT 1 "bready";
    .port_info 12 /INPUT 32 "araddr";
    .port_info 13 /INPUT 1 "arvalid";
    .port_info 14 /INPUT 1 "arready";
    .port_info 15 /INPUT 32 "rdata";
    .port_info 16 /INPUT 2 "rresp";
    .port_info 17 /INPUT 1 "rvalid";
    .port_info 18 /INPUT 1 "rready";
P_0x632ab900df90 .param/l "ADDR_WIDTH" 0 6 2, +C4<00000000000000000000000000100000>;
P_0x632ab900dfd0 .param/l "DATA_WIDTH" 0 6 3, +C4<00000000000000000000000000100000>;
v0x632ab907d0d0_0 .net "aclk", 0 0, v0x632ab9016d00_0;  alias, 1 drivers
v0x632ab907d170_0 .net "araddr", 31 0, v0x632ab907f650_0;  alias, 1 drivers
v0x632ab907d260_0 .net "aresetn", 0 0, v0x632ab90844b0_0;  alias, 1 drivers
v0x632ab907d350_0 .net "arready", 0 0, L_0x632ab9085600;  alias, 1 drivers
v0x632ab907d440_0 .net "arvalid", 0 0, v0x632ab907f850_0;  alias, 1 drivers
v0x632ab907d580_0 .net "awaddr", 31 0, v0x632ab907f940_0;  alias, 1 drivers
v0x632ab907d670_0 .net "awready", 0 0, L_0x632ab901b160;  alias, 1 drivers
v0x632ab907d760_0 .net "awvalid", 0 0, v0x632ab907fa80_0;  alias, 1 drivers
v0x632ab907d850_0 .net "bready", 0 0, v0x632ab907fb20_0;  alias, 1 drivers
v0x632ab907d980_0 .net "bresp", 1 0, v0x632ab907adf0_0;  alias, 1 drivers
v0x632ab907da90_0 .net "bvalid", 0 0, v0x632ab907aec0_0;  alias, 1 drivers
v0x632ab907db80_0 .var "fault_enable", 0 0;
v0x632ab907dc40_0 .net "rdata", 31 0, v0x632ab907af90_0;  alias, 1 drivers
v0x632ab907dd50_0 .net "rready", 0 0, v0x632ab907fde0_0;  alias, 1 drivers
v0x632ab907de40_0 .net "rresp", 1 0, v0x632ab907b130_0;  alias, 1 drivers
v0x632ab907df50_0 .net "rvalid", 0 0, v0x632ab907b200_0;  alias, 1 drivers
v0x632ab907e040_0 .net "wdata", 31 0, v0x632ab907ffe0_0;  alias, 1 drivers
v0x632ab907e260_0 .net "wready", 0 0, L_0x632ab90173f0;  alias, 1 drivers
v0x632ab907e350_0 .net "wstrb", 3 0, v0x632ab9080250_0;  alias, 1 drivers
v0x632ab907e460_0 .net "wvalid", 0 0, v0x632ab9080310_0;  alias, 1 drivers
S_0x632ab907bf50 .scope autotask, "inject_araddr_fault" "inject_araddr_fault" 6 263, 6 263 0, S_0x632ab907ba30;
 .timescale 0 0;
TD_tb_top.fault_injection.inject_araddr_fault ;
    %vpi_call/w 6 267 "$display", "\000" {0 0 0};
    %vpi_call/w 6 268 "$display", "==============================================" {0 0 0};
    %vpi_call/w 6 269 "$display", "[FAULT] ARADDR CHANGE" {0 0 0};
    %vpi_call/w 6 270 "$display", "==============================================" {0 0 0};
    %load/vec4 v0x632ab907d440_0;
    %flag_set/vec4 9;
    %flag_get/vec4 9;
    %jmp/0 T_0.2, 9;
    %load/vec4 v0x632ab907d350_0;
    %nor/r;
    %and;
T_0.2;
    %flag_set/vec4 8;
    %jmp/0xz  T_0.0, 8;
    %vpi_call/w 6 274 "$display", "[FAULT] ARADDR changed while transaction waiting" {0 0 0};
    %jmp T_0.1;
T_0.0 ;
    %vpi_call/w 6 281 "$display", "[FAULT] AR channel is not waiting" {0 0 0};
T_0.1 ;
    %end;
S_0x632ab907c130 .scope autotask, "inject_arvalid_fault" "inject_arvalid_fault" 6 230, 6 230 0, S_0x632ab907ba30;
 .timescale 0 0;
TD_tb_top.fault_injection.inject_arvalid_fault ;
    %vpi_call/w 6 234 "$display", "\000" {0 0 0};
    %vpi_call/w 6 235 "$display", "==============================================" {0 0 0};
    %vpi_call/w 6 236 "$display", "[FAULT] ARVALID DROP" {0 0 0};
    %vpi_call/w 6 237 "$display", "==============================================" {0 0 0};
    %load/vec4 v0x632ab907d440_0;
    %flag_set/vec4 9;
    %flag_get/vec4 9;
    %jmp/0 T_1.5, 9;
    %load/vec4 v0x632ab907d350_0;
    %nor/r;
    %and;
T_1.5;
    %flag_set/vec4 8;
    %jmp/0xz  T_1.3, 8;
    %vpi_call/w 6 241 "$display", "[FAULT] ARVALID was HIGH while ARREADY LOW" {0 0 0};
    %jmp T_1.4;
T_1.3 ;
    %vpi_call/w 6 248 "$display", "[FAULT] AR channel is not waiting" {0 0 0};
T_1.4 ;
    %end;
S_0x632ab907c330 .scope autotask, "inject_awaddr_fault" "inject_awaddr_fault" 6 87, 6 87 0, S_0x632ab907ba30;
 .timescale 0 0;
TD_tb_top.fault_injection.inject_awaddr_fault ;
    %vpi_call/w 6 91 "$display", "\000" {0 0 0};
    %vpi_call/w 6 92 "$display", "==============================================" {0 0 0};
    %vpi_call/w 6 93 "$display", "[FAULT] AWADDR CHANGE" {0 0 0};
    %vpi_call/w 6 94 "$display", "==============================================" {0 0 0};
    %load/vec4 v0x632ab907d760_0;
    %flag_set/vec4 9;
    %flag_get/vec4 9;
    %jmp/0 T_2.8, 9;
    %load/vec4 v0x632ab907d670_0;
    %nor/r;
    %and;
T_2.8;
    %flag_set/vec4 8;
    %jmp/0xz  T_2.6, 8;
    %vpi_call/w 6 98 "$display", "[FAULT] AWADDR changed while transaction waiting" {0 0 0};
    %jmp T_2.7;
T_2.6 ;
    %vpi_call/w 6 105 "$display", "[FAULT] AW channel is not waiting" {0 0 0};
T_2.7 ;
    %end;
S_0x632ab907c540 .scope autotask, "inject_awvalid_fault" "inject_awvalid_fault" 6 50, 6 50 0, S_0x632ab907ba30;
 .timescale 0 0;
TD_tb_top.fault_injection.inject_awvalid_fault ;
    %vpi_call/w 6 54 "$display", "\000" {0 0 0};
    %vpi_call/w 6 55 "$display", "==============================================" {0 0 0};
    %vpi_call/w 6 56 "$display", "[FAULT] AWVALID DROP" {0 0 0};
    %vpi_call/w 6 57 "$display", "==============================================" {0 0 0};
    %load/vec4 v0x632ab907d760_0;
    %flag_set/vec4 9;
    %flag_get/vec4 9;
    %jmp/0 T_3.11, 9;
    %load/vec4 v0x632ab907d670_0;
    %nor/r;
    %and;
T_3.11;
    %flag_set/vec4 8;
    %jmp/0xz  T_3.9, 8;
    %vpi_call/w 6 61 "$display", "[FAULT] AWVALID was HIGH while AWREADY LOW" {0 0 0};
    %vpi_call/w 6 65 "$display", "[FAULT] Protocol violation intentionally created" {0 0 0};
    %jmp T_3.10;
T_3.9 ;
    %vpi_call/w 6 72 "$display", "[FAULT] AW channel is not waiting" {0 0 0};
T_3.10 ;
    %end;
S_0x632ab907c720 .scope autotask, "inject_bresp_fault" "inject_bresp_fault" 6 193, 6 193 0, S_0x632ab907ba30;
 .timescale 0 0;
TD_tb_top.fault_injection.inject_bresp_fault ;
    %vpi_call/w 6 197 "$display", "\000" {0 0 0};
    %vpi_call/w 6 198 "$display", "==============================================" {0 0 0};
    %vpi_call/w 6 199 "$display", "[FAULT] INVALID BRESP" {0 0 0};
    %vpi_call/w 6 200 "$display", "==============================================" {0 0 0};
    %load/vec4 v0x632ab907da90_0;
    %flag_set/vec4 9;
    %flag_get/vec4 9;
    %jmp/0 T_4.14, 9;
    %load/vec4 v0x632ab907d850_0;
    %nor/r;
    %and;
T_4.14;
    %flag_set/vec4 8;
    %jmp/0xz  T_4.12, 8;
    %vpi_call/w 6 204 "$display", "[FAULT] BRESP intentionally corrupted" {0 0 0};
    %vpi_call/w 6 208 "$display", "[FAULT] Expected legal values: OKAY/SLVERR" {0 0 0};
    %jmp T_4.13;
T_4.12 ;
    %vpi_call/w 6 215 "$display", "[FAULT] B response is not waiting" {0 0 0};
T_4.13 ;
    %end;
S_0x632ab907c950 .scope autotask, "inject_rdata_fault" "inject_rdata_fault" 6 297, 6 297 0, S_0x632ab907ba30;
 .timescale 0 0;
TD_tb_top.fault_injection.inject_rdata_fault ;
    %vpi_call/w 6 301 "$display", "\000" {0 0 0};
    %vpi_call/w 6 302 "$display", "==============================================" {0 0 0};
    %vpi_call/w 6 303 "$display", "[FAULT] RDATA CHANGE" {0 0 0};
    %vpi_call/w 6 304 "$display", "==============================================" {0 0 0};
    %load/vec4 v0x632ab907df50_0;
    %flag_set/vec4 9;
    %flag_get/vec4 9;
    %jmp/0 T_5.17, 9;
    %load/vec4 v0x632ab907dd50_0;
    %nor/r;
    %and;
T_5.17;
    %flag_set/vec4 8;
    %jmp/0xz  T_5.15, 8;
    %vpi_call/w 6 308 "$display", "[FAULT] RDATA changed while RVALID HIGH" {0 0 0};
    %jmp T_5.16;
T_5.15 ;
    %vpi_call/w 6 315 "$display", "[FAULT] R channel is not waiting" {0 0 0};
T_5.16 ;
    %end;
S_0x632ab907cb30 .scope autotask, "inject_rresp_fault" "inject_rresp_fault" 6 331, 6 331 0, S_0x632ab907ba30;
 .timescale 0 0;
TD_tb_top.fault_injection.inject_rresp_fault ;
    %vpi_call/w 6 335 "$display", "\000" {0 0 0};
    %vpi_call/w 6 336 "$display", "==============================================" {0 0 0};
    %vpi_call/w 6 337 "$display", "[FAULT] INVALID RRESP" {0 0 0};
    %vpi_call/w 6 338 "$display", "==============================================" {0 0 0};
    %load/vec4 v0x632ab907df50_0;
    %flag_set/vec4 9;
    %flag_get/vec4 9;
    %jmp/0 T_6.20, 9;
    %load/vec4 v0x632ab907dd50_0;
    %nor/r;
    %and;
T_6.20;
    %flag_set/vec4 8;
    %jmp/0xz  T_6.18, 8;
    %vpi_call/w 6 342 "$display", "[FAULT] RRESP intentionally corrupted" {0 0 0};
    %jmp T_6.19;
T_6.18 ;
    %vpi_call/w 6 349 "$display", "[FAULT] R response is not waiting" {0 0 0};
T_6.19 ;
    %end;
S_0x632ab907cd10 .scope autotask, "inject_wdata_fault" "inject_wdata_fault" 6 159, 6 159 0, S_0x632ab907ba30;
 .timescale 0 0;
TD_tb_top.fault_injection.inject_wdata_fault ;
    %vpi_call/w 6 163 "$display", "\000" {0 0 0};
    %vpi_call/w 6 164 "$display", "==============================================" {0 0 0};
    %vpi_call/w 6 165 "$display", "[FAULT] WDATA CHANGE" {0 0 0};
    %vpi_call/w 6 166 "$display", "==============================================" {0 0 0};
    %load/vec4 v0x632ab907e460_0;
    %flag_set/vec4 9;
    %flag_get/vec4 9;
    %jmp/0 T_7.23, 9;
    %load/vec4 v0x632ab907e260_0;
    %nor/r;
    %and;
T_7.23;
    %flag_set/vec4 8;
    %jmp/0xz  T_7.21, 8;
    %vpi_call/w 6 170 "$display", "[FAULT] WDATA changed while WVALID HIGH" {0 0 0};
    %jmp T_7.22;
T_7.21 ;
    %vpi_call/w 6 177 "$display", "[FAULT] W channel is not waiting" {0 0 0};
T_7.22 ;
    %end;
S_0x632ab907cef0 .scope autotask, "inject_wvalid_fault" "inject_wvalid_fault" 6 121, 6 121 0, S_0x632ab907ba30;
 .timescale 0 0;
TD_tb_top.fault_injection.inject_wvalid_fault ;
    %vpi_call/w 6 125 "$display", "\000" {0 0 0};
    %vpi_call/w 6 126 "$display", "==============================================" {0 0 0};
    %vpi_call/w 6 127 "$display", "[FAULT] WVALID DROP" {0 0 0};
    %vpi_call/w 6 128 "$display", "==============================================" {0 0 0};
    %load/vec4 v0x632ab907e460_0;
    %flag_set/vec4 9;
    %flag_get/vec4 9;
    %jmp/0 T_8.26, 9;
    %load/vec4 v0x632ab907e260_0;
    %nor/r;
    %and;
T_8.26;
    %flag_set/vec4 8;
    %jmp/0xz  T_8.24, 8;
    %vpi_call/w 6 132 "$display", "[FAULT] WVALID was HIGH while WREADY LOW" {0 0 0};
    %vpi_call/w 6 136 "$display", "[FAULT] Protocol violation intentionally created" {0 0 0};
    %jmp T_8.25;
T_8.24 ;
    %vpi_call/w 6 143 "$display", "[FAULT] W channel is not waiting" {0 0 0};
T_8.25 ;
    %end;
S_0x632ab907e850 .scope module, "master" "axi4_lite_master" 3 125, 7 1 0, S_0x632ab8f95180;
 .timescale 0 0;
    .port_info 0 /INPUT 1 "aclk";
    .port_info 1 /INPUT 1 "aresetn";
    .port_info 2 /OUTPUT 32 "awaddr";
    .port_info 3 /OUTPUT 1 "awvalid";
    .port_info 4 /INPUT 1 "awready";
    .port_info 5 /OUTPUT 32 "wdata";
    .port_info 6 /OUTPUT 4 "wstrb";
    .port_info 7 /OUTPUT 1 "wvalid";
    .port_info 8 /INPUT 1 "wready";
    .port_info 9 /INPUT 2 "bresp";
    .port_info 10 /INPUT 1 "bvalid";
    .port_info 11 /OUTPUT 1 "bready";
    .port_info 12 /OUTPUT 32 "araddr";
    .port_info 13 /OUTPUT 1 "arvalid";
    .port_info 14 /INPUT 1 "arready";
    .port_info 15 /INPUT 32 "rdata";
    .port_info 16 /INPUT 2 "rresp";
    .port_info 17 /INPUT 1 "rvalid";
    .port_info 18 /OUTPUT 1 "rready";
P_0x632ab907d8f0 .param/l "ADDR_WIDTH" 0 7 2, +C4<00000000000000000000000000100000>;
P_0x632ab907d930 .param/l "DATA_WIDTH" 0 7 3, +C4<00000000000000000000000000100000>;
v0x632ab907f590_0 .net "aclk", 0 0, v0x632ab9016d00_0;  alias, 1 drivers
v0x632ab907f650_0 .var "araddr", 31 0;
v0x632ab907f710_0 .net "aresetn", 0 0, v0x632ab90844b0_0;  alias, 1 drivers
v0x632ab907f7b0_0 .net "arready", 0 0, L_0x632ab9085600;  alias, 1 drivers
v0x632ab907f850_0 .var "arvalid", 0 0;
v0x632ab907f940_0 .var "awaddr", 31 0;
v0x632ab907f9e0_0 .net "awready", 0 0, L_0x632ab901b160;  alias, 1 drivers
v0x632ab907fa80_0 .var "awvalid", 0 0;
v0x632ab907fb20_0 .var "bready", 0 0;
v0x632ab907fbc0_0 .net "bresp", 1 0, v0x632ab907adf0_0;  alias, 1 drivers
v0x632ab907fc80_0 .net "bvalid", 0 0, v0x632ab907aec0_0;  alias, 1 drivers
v0x632ab907fd20_0 .net "rdata", 31 0, v0x632ab907af90_0;  alias, 1 drivers
v0x632ab907fde0_0 .var "rready", 0 0;
v0x632ab907fe80_0 .net "rresp", 1 0, v0x632ab907b130_0;  alias, 1 drivers
v0x632ab907ff40_0 .net "rvalid", 0 0, v0x632ab907b200_0;  alias, 1 drivers
v0x632ab907ffe0_0 .var "wdata", 31 0;
v0x632ab90800a0_0 .net "wready", 0 0, L_0x632ab90173f0;  alias, 1 drivers
v0x632ab9080250_0 .var "wstrb", 3 0;
v0x632ab9080310_0 .var "wvalid", 0 0;
S_0x632ab907ed30 .scope autotask, "read" "read" 7 125, 7 125 0, S_0x632ab907e850;
 .timescale 0 0;
v0x632ab907ef30_0 .var "addr", 31 0;
v0x632ab907f030_0 .var "data", 31 0;
TD_tb_top.master.read ;
    %wait E_0x632ab8fdc7a0;
    %load/vec4 v0x632ab907ef30_0;
    %assign/vec4 v0x632ab907f650_0, 0;
    %pushi/vec4 1, 0, 1;
    %assign/vec4 v0x632ab907f850_0, 0;
T_9.27 ;
    %load/vec4 v0x632ab907f7b0_0;
    %nor/r;
    %flag_set/vec4 8;
    %jmp/0xz T_9.28, 8;
    %wait E_0x632ab8fdc7a0;
    %jmp T_9.27;
T_9.28 ;
    %wait E_0x632ab8fdc7a0;
    %pushi/vec4 0, 0, 1;
    %assign/vec4 v0x632ab907f850_0, 0;
    %pushi/vec4 1, 0, 1;
    %assign/vec4 v0x632ab907fde0_0, 0;
T_9.29 ;
    %load/vec4 v0x632ab907ff40_0;
    %nor/r;
    %flag_set/vec4 8;
    %jmp/0xz T_9.30, 8;
    %wait E_0x632ab8fdc7a0;
    %jmp T_9.29;
T_9.30 ;
    %load/vec4 v0x632ab907fd20_0;
    %store/vec4 v0x632ab907f030_0, 0, 32;
    %load/vec4 v0x632ab907fe80_0;
    %cmpi/e 0, 0, 2;
    %jmp/0xz  T_9.31, 4;
    %vpi_call/w 7 154 "$display", "[MASTER] READ SUCCESS ADDR=%h DATA=%h", v0x632ab907ef30_0, v0x632ab907f030_0 {0 0 0};
    %jmp T_9.32;
T_9.31 ;
    %vpi_call/w 7 160 "$display", "[MASTER] READ RESPONSE ERROR ADDR=%h RRESP=%b", v0x632ab907ef30_0, v0x632ab907fe80_0 {0 0 0};
T_9.32 ;
    %wait E_0x632ab8fdc7a0;
    %pushi/vec4 0, 0, 1;
    %assign/vec4 v0x632ab907fde0_0, 0;
    %end;
S_0x632ab907f110 .scope autotask, "write" "write" 7 58, 7 58 0, S_0x632ab907e850;
 .timescale 0 0;
v0x632ab907f310_0 .var "addr", 31 0;
v0x632ab907f3f0_0 .var "data", 31 0;
v0x632ab907f4d0_0 .var "strb", 3 0;
TD_tb_top.master.write ;
    %wait E_0x632ab8fdc7a0;
    %load/vec4 v0x632ab907f310_0;
    %assign/vec4 v0x632ab907f940_0, 0;
    %pushi/vec4 1, 0, 1;
    %assign/vec4 v0x632ab907fa80_0, 0;
T_10.33 ;
    %load/vec4 v0x632ab907f9e0_0;
    %nor/r;
    %flag_set/vec4 8;
    %jmp/0xz T_10.34, 8;
    %wait E_0x632ab8fdc7a0;
    %jmp T_10.33;
T_10.34 ;
    %wait E_0x632ab8fdc7a0;
    %pushi/vec4 0, 0, 1;
    %assign/vec4 v0x632ab907fa80_0, 0;
    %load/vec4 v0x632ab907f3f0_0;
    %assign/vec4 v0x632ab907ffe0_0, 0;
    %load/vec4 v0x632ab907f4d0_0;
    %assign/vec4 v0x632ab9080250_0, 0;
    %pushi/vec4 1, 0, 1;
    %assign/vec4 v0x632ab9080310_0, 0;
T_10.35 ;
    %load/vec4 v0x632ab90800a0_0;
    %nor/r;
    %flag_set/vec4 8;
    %jmp/0xz T_10.36, 8;
    %wait E_0x632ab8fdc7a0;
    %jmp T_10.35;
T_10.36 ;
    %wait E_0x632ab8fdc7a0;
    %pushi/vec4 0, 0, 1;
    %assign/vec4 v0x632ab9080310_0, 0;
    %pushi/vec4 1, 0, 1;
    %assign/vec4 v0x632ab907fb20_0, 0;
T_10.37 ;
    %load/vec4 v0x632ab907fc80_0;
    %nor/r;
    %flag_set/vec4 8;
    %jmp/0xz T_10.38, 8;
    %wait E_0x632ab8fdc7a0;
    %jmp T_10.37;
T_10.38 ;
    %load/vec4 v0x632ab907fbc0_0;
    %cmpi/e 0, 0, 2;
    %jmp/0xz  T_10.39, 4;
    %vpi_call/w 7 100 "$display", "[MASTER] WRITE SUCCESS ADDR=%h DATA=%h", v0x632ab907f310_0, v0x632ab907f3f0_0 {0 0 0};
    %jmp T_10.40;
T_10.39 ;
    %vpi_call/w 7 106 "$display", "[MASTER] WRITE RESPONSE ERROR ADDR=%h BRESP=%b", v0x632ab907f310_0, v0x632ab907fbc0_0 {0 0 0};
T_10.40 ;
    %wait E_0x632ab8fdc7a0;
    %pushi/vec4 0, 0, 1;
    %assign/vec4 v0x632ab907fb20_0, 0;
    %end;
S_0x632ab90806b0 .scope module, "monitor" "axi4_lite_monitor" 3 162, 8 1 0, S_0x632ab8f95180;
 .timescale 0 0;
    .port_info 0 /INPUT 1 "aclk";
    .port_info 1 /INPUT 1 "aresetn";
    .port_info 2 /INPUT 32 "awaddr";
    .port_info 3 /INPUT 1 "awvalid";
    .port_info 4 /INPUT 1 "awready";
    .port_info 5 /INPUT 32 "wdata";
    .port_info 6 /INPUT 4 "wstrb";
    .port_info 7 /INPUT 1 "wvalid";
    .port_info 8 /INPUT 1 "wready";
    .port_info 9 /INPUT 2 "bresp";
    .port_info 10 /INPUT 1 "bvalid";
    .port_info 11 /INPUT 1 "bready";
    .port_info 12 /INPUT 32 "araddr";
    .port_info 13 /INPUT 1 "arvalid";
    .port_info 14 /INPUT 1 "arready";
    .port_info 15 /INPUT 32 "rdata";
    .port_info 16 /INPUT 2 "rresp";
    .port_info 17 /INPUT 1 "rvalid";
    .port_info 18 /INPUT 1 "rready";
P_0x632ab907ea80 .param/l "ADDR_WIDTH" 0 8 2, +C4<00000000000000000000000000100000>;
P_0x632ab907eac0 .param/l "DATA_WIDTH" 0 8 3, +C4<00000000000000000000000000100000>;
v0x632ab9080b90_0 .net "aclk", 0 0, v0x632ab9016d00_0;  alias, 1 drivers
v0x632ab9080c50_0 .net "araddr", 31 0, v0x632ab907f650_0;  alias, 1 drivers
v0x632ab9080da0_0 .net "aresetn", 0 0, v0x632ab90844b0_0;  alias, 1 drivers
v0x632ab9080ed0_0 .net "arready", 0 0, L_0x632ab9085600;  alias, 1 drivers
v0x632ab9081000_0 .net "arvalid", 0 0, v0x632ab907f850_0;  alias, 1 drivers
v0x632ab9081130_0 .var "aw_seen", 0 0;
v0x632ab90811d0_0 .net "awaddr", 31 0, v0x632ab907f940_0;  alias, 1 drivers
v0x632ab9081320_0 .net "awready", 0 0, L_0x632ab901b160;  alias, 1 drivers
v0x632ab9081450_0 .net "awvalid", 0 0, v0x632ab907fa80_0;  alias, 1 drivers
v0x632ab9081610_0 .net "bready", 0 0, v0x632ab907fb20_0;  alias, 1 drivers
v0x632ab9081740_0 .net "bresp", 1 0, v0x632ab907adf0_0;  alias, 1 drivers
v0x632ab9081890_0 .net "bvalid", 0 0, v0x632ab907aec0_0;  alias, 1 drivers
v0x632ab90819c0_0 .var "monitored_awaddr", 31 0;
v0x632ab9081aa0_0 .var "monitored_wdata", 31 0;
v0x632ab9081b80_0 .var "monitored_wstrb", 3 0;
v0x632ab9081c60_0 .net "rdata", 31 0, v0x632ab907af90_0;  alias, 1 drivers
v0x632ab9081db0_0 .net "rready", 0 0, v0x632ab907fde0_0;  alias, 1 drivers
v0x632ab9081f60_0 .net "rresp", 1 0, v0x632ab907b130_0;  alias, 1 drivers
v0x632ab90820b0_0 .net "rvalid", 0 0, v0x632ab907b200_0;  alias, 1 drivers
v0x632ab90821e0_0 .var "w_seen", 0 0;
v0x632ab90822a0_0 .net "wdata", 31 0, v0x632ab907ffe0_0;  alias, 1 drivers
v0x632ab90823f0_0 .net "wready", 0 0, L_0x632ab90173f0;  alias, 1 drivers
v0x632ab9082520_0 .net "wstrb", 3 0, v0x632ab9080250_0;  alias, 1 drivers
v0x632ab9082670_0 .net "wvalid", 0 0, v0x632ab9080310_0;  alias, 1 drivers
S_0x632ab9082aa0 .scope module, "scoreboard" "axi4_lite_scoreboard" 3 197, 9 1 0, S_0x632ab8f95180;
 .timescale 0 0;
    .port_info 0 /INPUT 1 "aclk";
    .port_info 1 /INPUT 1 "aresetn";
    .port_info 2 /INPUT 32 "awaddr";
    .port_info 3 /INPUT 1 "awvalid";
    .port_info 4 /INPUT 1 "awready";
    .port_info 5 /INPUT 32 "wdata";
    .port_info 6 /INPUT 4 "wstrb";
    .port_info 7 /INPUT 1 "wvalid";
    .port_info 8 /INPUT 1 "wready";
    .port_info 9 /INPUT 2 "bresp";
    .port_info 10 /INPUT 1 "bvalid";
    .port_info 11 /INPUT 1 "bready";
    .port_info 12 /INPUT 32 "araddr";
    .port_info 13 /INPUT 1 "arvalid";
    .port_info 14 /INPUT 1 "arready";
    .port_info 15 /INPUT 32 "rdata";
    .port_info 16 /INPUT 2 "rresp";
    .port_info 17 /INPUT 1 "rvalid";
    .port_info 18 /INPUT 1 "rready";
P_0x632ab9082c30 .param/l "ADDR_WIDTH" 0 9 2, +C4<00000000000000000000000000100000>;
P_0x632ab9082c70 .param/l "DATA_WIDTH" 0 9 3, +C4<00000000000000000000000000100000>;
v0x632ab9082f20_0 .net "aclk", 0 0, v0x632ab9016d00_0;  alias, 1 drivers
v0x632ab9082fe0_0 .net "araddr", 31 0, v0x632ab907f650_0;  alias, 1 drivers
v0x632ab9083080_0 .net "aresetn", 0 0, v0x632ab90844b0_0;  alias, 1 drivers
v0x632ab9083120_0 .net "arready", 0 0, L_0x632ab9085600;  alias, 1 drivers
v0x632ab90831c0_0 .net "arvalid", 0 0, v0x632ab907f850_0;  alias, 1 drivers
v0x632ab9083260_0 .var "aw_received", 0 0;
v0x632ab9083300_0 .net "awaddr", 31 0, v0x632ab907f940_0;  alias, 1 drivers
v0x632ab90833a0_0 .net "awready", 0 0, L_0x632ab901b160;  alias, 1 drivers
v0x632ab9083440_0 .net "awvalid", 0 0, v0x632ab907fa80_0;  alias, 1 drivers
v0x632ab90834e0_0 .net "bready", 0 0, v0x632ab907fb20_0;  alias, 1 drivers
v0x632ab9083580_0 .net "bresp", 1 0, v0x632ab907adf0_0;  alias, 1 drivers
v0x632ab9083620_0 .net "bvalid", 0 0, v0x632ab907aec0_0;  alias, 1 drivers
v0x632ab90836c0_0 .var "expected_awaddr", 31 0;
v0x632ab9083760_0 .var "expected_reg0", 31 0;
v0x632ab9083800_0 .var "expected_reg1", 31 0;
v0x632ab90838a0_0 .var "expected_reg2", 31 0;
v0x632ab9083940_0 .var "expected_reg3", 31 0;
v0x632ab9083af0_0 .var "expected_wdata", 31 0;
v0x632ab9083b90_0 .var "expected_wstrb", 3 0;
v0x632ab9083c30_0 .net "rdata", 31 0, v0x632ab907af90_0;  alias, 1 drivers
v0x632ab9083cd0_0 .net "rready", 0 0, v0x632ab907fde0_0;  alias, 1 drivers
v0x632ab9083d70_0 .net "rresp", 1 0, v0x632ab907b130_0;  alias, 1 drivers
v0x632ab9083e10_0 .net "rvalid", 0 0, v0x632ab907b200_0;  alias, 1 drivers
v0x632ab9083eb0_0 .var "w_received", 0 0;
v0x632ab9083f50_0 .net "wdata", 31 0, v0x632ab907ffe0_0;  alias, 1 drivers
v0x632ab9083ff0_0 .net "wready", 0 0, L_0x632ab90173f0;  alias, 1 drivers
v0x632ab9084090_0 .net "wstrb", 3 0, v0x632ab9080250_0;  alias, 1 drivers
v0x632ab9084130_0 .net "wvalid", 0 0, v0x632ab9080310_0;  alias, 1 drivers
    .scope S_0x632ab9079940;
T_11 ;
    %wait E_0x632ab8fdc7a0;
    %load/vec4 v0x632ab907a270_0;
    %nor/r;
    %flag_set/vec4 8;
    %jmp/0xz  T_11.0, 8;
    %pushi/vec4 0, 0, 32;
    %assign/vec4 v0x632ab907a4a0_0, 0;
    %pushi/vec4 0, 0, 32;
    %assign/vec4 v0x632ab907a580_0, 0;
    %pushi/vec4 0, 0, 32;
    %assign/vec4 v0x632ab907a660_0, 0;
    %pushi/vec4 0, 0, 32;
    %assign/vec4 v0x632ab907a740_0, 0;
    %pushi/vec4 0, 0, 32;
    %assign/vec4 v0x632ab907a3e0_0, 0;
    %pushi/vec4 0, 0, 32;
    %assign/vec4 v0x632ab907b6b0_0, 0;
    %pushi/vec4 0, 0, 4;
    %assign/vec4 v0x632ab907b750_0, 0;
    %pushi/vec4 0, 0, 1;
    %assign/vec4 v0x632ab907a340_0, 0;
    %pushi/vec4 0, 0, 1;
    %assign/vec4 v0x632ab907b610_0, 0;
    %pushi/vec4 0, 0, 1;
    %assign/vec4 v0x632ab907aec0_0, 0;
    %pushi/vec4 0, 0, 2;
    %assign/vec4 v0x632ab907adf0_0, 0;
    %pushi/vec4 0, 0, 1;
    %assign/vec4 v0x632ab907b200_0, 0;
    %pushi/vec4 0, 0, 32;
    %assign/vec4 v0x632ab907af90_0, 0;
    %pushi/vec4 0, 0, 2;
    %assign/vec4 v0x632ab907b130_0, 0;
    %jmp T_11.1;
T_11.0 ;
    %load/vec4 v0x632ab907ac50_0;
    %flag_set/vec4 9;
    %flag_get/vec4 9;
    %jmp/0 T_11.4, 9;
    %load/vec4 v0x632ab907ab80_0;
    %and;
T_11.4;
    %flag_set/vec4 8;
    %jmp/0xz  T_11.2, 8;
    %load/vec4 v0x632ab907aab0_0;
    %assign/vec4 v0x632ab907a3e0_0, 0;
    %pushi/vec4 1, 0, 1;
    %assign/vec4 v0x632ab907a340_0, 0;
T_11.2 ;
    %load/vec4 v0x632ab907b540_0;
    %flag_set/vec4 9;
    %flag_get/vec4 9;
    %jmp/0 T_11.7, 9;
    %load/vec4 v0x632ab907b3a0_0;
    %and;
T_11.7;
    %flag_set/vec4 8;
    %jmp/0xz  T_11.5, 8;
    %load/vec4 v0x632ab907b2d0_0;
    %assign/vec4 v0x632ab907b6b0_0, 0;
    %load/vec4 v0x632ab907b470_0;
    %assign/vec4 v0x632ab907b750_0, 0;
    %pushi/vec4 1, 0, 1;
    %assign/vec4 v0x632ab907b610_0, 0;
T_11.5 ;
    %load/vec4 v0x632ab907a340_0;
    %flag_set/vec4 10;
    %flag_get/vec4 10;
    %jmp/0 T_11.11, 10;
    %load/vec4 v0x632ab907b610_0;
    %and;
T_11.11;
    %flag_set/vec4 9;
    %flag_get/vec4 9;
    %jmp/0 T_11.10, 9;
    %load/vec4 v0x632ab907aec0_0;
    %nor/r;
    %and;
T_11.10;
    %flag_set/vec4 8;
    %jmp/0xz  T_11.8, 8;
    %load/vec4 v0x632ab907a3e0_0;
    %parti/s 4, 2, 3;
    %dup/vec4;
    %pushi/vec4 0, 0, 4;
    %cmp/u;
    %jmp/1 T_11.12, 6;
    %dup/vec4;
    %pushi/vec4 1, 0, 4;
    %cmp/u;
    %jmp/1 T_11.13, 6;
    %dup/vec4;
    %pushi/vec4 2, 0, 4;
    %cmp/u;
    %jmp/1 T_11.14, 6;
    %dup/vec4;
    %pushi/vec4 3, 0, 4;
    %cmp/u;
    %jmp/1 T_11.15, 6;
    %pushi/vec4 2, 0, 2;
    %assign/vec4 v0x632ab907adf0_0, 0;
    %jmp T_11.17;
T_11.12 ;
    %load/vec4 v0x632ab907b750_0;
    %parti/s 1, 0, 2;
    %flag_set/vec4 8;
    %jmp/0xz  T_11.18, 8;
    %load/vec4 v0x632ab907b6b0_0;
    %parti/s 8, 0, 2;
    %ix/load 4, 0, 0;
    %ix/load 5, 0, 0;
    %flag_set/imm 4, 0;
    %assign/vec4/off/d v0x632ab907a4a0_0, 4, 5;
T_11.18 ;
    %load/vec4 v0x632ab907b750_0;
    %parti/s 1, 1, 2;
    %flag_set/vec4 8;
    %jmp/0xz  T_11.20, 8;
    %load/vec4 v0x632ab907b6b0_0;
    %parti/s 8, 8, 5;
    %ix/load 4, 8, 0;
    %ix/load 5, 0, 0;
    %flag_set/imm 4, 0;
    %assign/vec4/off/d v0x632ab907a4a0_0, 4, 5;
T_11.20 ;
    %load/vec4 v0x632ab907b750_0;
    %parti/s 1, 2, 3;
    %flag_set/vec4 8;
    %jmp/0xz  T_11.22, 8;
    %load/vec4 v0x632ab907b6b0_0;
    %parti/s 8, 16, 6;
    %ix/load 4, 16, 0;
    %ix/load 5, 0, 0;
    %flag_set/imm 4, 0;
    %assign/vec4/off/d v0x632ab907a4a0_0, 4, 5;
T_11.22 ;
    %load/vec4 v0x632ab907b750_0;
    %parti/s 1, 3, 3;
    %flag_set/vec4 8;
    %jmp/0xz  T_11.24, 8;
    %load/vec4 v0x632ab907b6b0_0;
    %parti/s 8, 24, 6;
    %ix/load 4, 24, 0;
    %ix/load 5, 0, 0;
    %flag_set/imm 4, 0;
    %assign/vec4/off/d v0x632ab907a4a0_0, 4, 5;
T_11.24 ;
    %pushi/vec4 0, 0, 2;
    %assign/vec4 v0x632ab907adf0_0, 0;
    %jmp T_11.17;
T_11.13 ;
    %load/vec4 v0x632ab907b750_0;
    %parti/s 1, 0, 2;
    %flag_set/vec4 8;
    %jmp/0xz  T_11.26, 8;
    %load/vec4 v0x632ab907b6b0_0;
    %parti/s 8, 0, 2;
    %ix/load 4, 0, 0;
    %ix/load 5, 0, 0;
    %flag_set/imm 4, 0;
    %assign/vec4/off/d v0x632ab907a580_0, 4, 5;
T_11.26 ;
    %load/vec4 v0x632ab907b750_0;
    %parti/s 1, 1, 2;
    %flag_set/vec4 8;
    %jmp/0xz  T_11.28, 8;
    %load/vec4 v0x632ab907b6b0_0;
    %parti/s 8, 8, 5;
    %ix/load 4, 8, 0;
    %ix/load 5, 0, 0;
    %flag_set/imm 4, 0;
    %assign/vec4/off/d v0x632ab907a580_0, 4, 5;
T_11.28 ;
    %load/vec4 v0x632ab907b750_0;
    %parti/s 1, 2, 3;
    %flag_set/vec4 8;
    %jmp/0xz  T_11.30, 8;
    %load/vec4 v0x632ab907b6b0_0;
    %parti/s 8, 16, 6;
    %ix/load 4, 16, 0;
    %ix/load 5, 0, 0;
    %flag_set/imm 4, 0;
    %assign/vec4/off/d v0x632ab907a580_0, 4, 5;
T_11.30 ;
    %load/vec4 v0x632ab907b750_0;
    %parti/s 1, 3, 3;
    %flag_set/vec4 8;
    %jmp/0xz  T_11.32, 8;
    %load/vec4 v0x632ab907b6b0_0;
    %parti/s 8, 24, 6;
    %ix/load 4, 24, 0;
    %ix/load 5, 0, 0;
    %flag_set/imm 4, 0;
    %assign/vec4/off/d v0x632ab907a580_0, 4, 5;
T_11.32 ;
    %pushi/vec4 0, 0, 2;
    %assign/vec4 v0x632ab907adf0_0, 0;
    %jmp T_11.17;
T_11.14 ;
    %load/vec4 v0x632ab907b750_0;
    %parti/s 1, 0, 2;
    %flag_set/vec4 8;
    %jmp/0xz  T_11.34, 8;
    %load/vec4 v0x632ab907b6b0_0;
    %parti/s 8, 0, 2;
    %ix/load 4, 0, 0;
    %ix/load 5, 0, 0;
    %flag_set/imm 4, 0;
    %assign/vec4/off/d v0x632ab907a660_0, 4, 5;
T_11.34 ;
    %load/vec4 v0x632ab907b750_0;
    %parti/s 1, 1, 2;
    %flag_set/vec4 8;
    %jmp/0xz  T_11.36, 8;
    %load/vec4 v0x632ab907b6b0_0;
    %parti/s 8, 8, 5;
    %ix/load 4, 8, 0;
    %ix/load 5, 0, 0;
    %flag_set/imm 4, 0;
    %assign/vec4/off/d v0x632ab907a660_0, 4, 5;
T_11.36 ;
    %load/vec4 v0x632ab907b750_0;
    %parti/s 1, 2, 3;
    %flag_set/vec4 8;
    %jmp/0xz  T_11.38, 8;
    %load/vec4 v0x632ab907b6b0_0;
    %parti/s 8, 16, 6;
    %ix/load 4, 16, 0;
    %ix/load 5, 0, 0;
    %flag_set/imm 4, 0;
    %assign/vec4/off/d v0x632ab907a660_0, 4, 5;
T_11.38 ;
    %load/vec4 v0x632ab907b750_0;
    %parti/s 1, 3, 3;
    %flag_set/vec4 8;
    %jmp/0xz  T_11.40, 8;
    %load/vec4 v0x632ab907b6b0_0;
    %parti/s 8, 24, 6;
    %ix/load 4, 24, 0;
    %ix/load 5, 0, 0;
    %flag_set/imm 4, 0;
    %assign/vec4/off/d v0x632ab907a660_0, 4, 5;
T_11.40 ;
    %pushi/vec4 0, 0, 2;
    %assign/vec4 v0x632ab907adf0_0, 0;
    %jmp T_11.17;
T_11.15 ;
    %load/vec4 v0x632ab907b750_0;
    %parti/s 1, 0, 2;
    %flag_set/vec4 8;
    %jmp/0xz  T_11.42, 8;
    %load/vec4 v0x632ab907b6b0_0;
    %parti/s 8, 0, 2;
    %ix/load 4, 0, 0;
    %ix/load 5, 0, 0;
    %flag_set/imm 4, 0;
    %assign/vec4/off/d v0x632ab907a740_0, 4, 5;
T_11.42 ;
    %load/vec4 v0x632ab907b750_0;
    %parti/s 1, 1, 2;
    %flag_set/vec4 8;
    %jmp/0xz  T_11.44, 8;
    %load/vec4 v0x632ab907b6b0_0;
    %parti/s 8, 8, 5;
    %ix/load 4, 8, 0;
    %ix/load 5, 0, 0;
    %flag_set/imm 4, 0;
    %assign/vec4/off/d v0x632ab907a740_0, 4, 5;
T_11.44 ;
    %load/vec4 v0x632ab907b750_0;
    %parti/s 1, 2, 3;
    %flag_set/vec4 8;
    %jmp/0xz  T_11.46, 8;
    %load/vec4 v0x632ab907b6b0_0;
    %parti/s 8, 16, 6;
    %ix/load 4, 16, 0;
    %ix/load 5, 0, 0;
    %flag_set/imm 4, 0;
    %assign/vec4/off/d v0x632ab907a740_0, 4, 5;
T_11.46 ;
    %load/vec4 v0x632ab907b750_0;
    %parti/s 1, 3, 3;
    %flag_set/vec4 8;
    %jmp/0xz  T_11.48, 8;
    %load/vec4 v0x632ab907b6b0_0;
    %parti/s 8, 24, 6;
    %ix/load 4, 24, 0;
    %ix/load 5, 0, 0;
    %flag_set/imm 4, 0;
    %assign/vec4/off/d v0x632ab907a740_0, 4, 5;
T_11.48 ;
    %pushi/vec4 0, 0, 2;
    %assign/vec4 v0x632ab907adf0_0, 0;
    %jmp T_11.17;
T_11.17 ;
    %pop/vec4 1;
    %pushi/vec4 1, 0, 1;
    %assign/vec4 v0x632ab907aec0_0, 0;
    %pushi/vec4 0, 0, 1;
    %assign/vec4 v0x632ab907a340_0, 0;
    %pushi/vec4 0, 0, 1;
    %assign/vec4 v0x632ab907b610_0, 0;
T_11.8 ;
    %load/vec4 v0x632ab907aec0_0;
    %flag_set/vec4 9;
    %flag_get/vec4 9;
    %jmp/0 T_11.52, 9;
    %load/vec4 v0x632ab907ad20_0;
    %and;
T_11.52;
    %flag_set/vec4 8;
    %jmp/0xz  T_11.50, 8;
    %pushi/vec4 0, 0, 1;
    %assign/vec4 v0x632ab907aec0_0, 0;
T_11.50 ;
    %load/vec4 v0x632ab907a9e0_0;
    %flag_set/vec4 9;
    %flag_get/vec4 9;
    %jmp/0 T_11.55, 9;
    %load/vec4 v0x632ab907a910_0;
    %and;
T_11.55;
    %flag_set/vec4 8;
    %jmp/0xz  T_11.53, 8;
    %load/vec4 v0x632ab907a820_0;
    %parti/s 4, 2, 3;
    %dup/vec4;
    %pushi/vec4 0, 0, 4;
    %cmp/u;
    %jmp/1 T_11.56, 6;
    %dup/vec4;
    %pushi/vec4 1, 0, 4;
    %cmp/u;
    %jmp/1 T_11.57, 6;
    %dup/vec4;
    %pushi/vec4 2, 0, 4;
    %cmp/u;
    %jmp/1 T_11.58, 6;
    %dup/vec4;
    %pushi/vec4 3, 0, 4;
    %cmp/u;
    %jmp/1 T_11.59, 6;
    %pushi/vec4 0, 0, 32;
    %assign/vec4 v0x632ab907af90_0, 0;
    %pushi/vec4 2, 0, 2;
    %assign/vec4 v0x632ab907b130_0, 0;
    %jmp T_11.61;
T_11.56 ;
    %load/vec4 v0x632ab907a4a0_0;
    %assign/vec4 v0x632ab907af90_0, 0;
    %pushi/vec4 0, 0, 2;
    %assign/vec4 v0x632ab907b130_0, 0;
    %jmp T_11.61;
T_11.57 ;
    %load/vec4 v0x632ab907a580_0;
    %assign/vec4 v0x632ab907af90_0, 0;
    %pushi/vec4 0, 0, 2;
    %assign/vec4 v0x632ab907b130_0, 0;
    %jmp T_11.61;
T_11.58 ;
    %load/vec4 v0x632ab907a660_0;
    %assign/vec4 v0x632ab907af90_0, 0;
    %pushi/vec4 0, 0, 2;
    %assign/vec4 v0x632ab907b130_0, 0;
    %jmp T_11.61;
T_11.59 ;
    %load/vec4 v0x632ab907a740_0;
    %assign/vec4 v0x632ab907af90_0, 0;
    %pushi/vec4 0, 0, 2;
    %assign/vec4 v0x632ab907b130_0, 0;
    %jmp T_11.61;
T_11.61 ;
    %pop/vec4 1;
    %pushi/vec4 1, 0, 1;
    %assign/vec4 v0x632ab907b200_0, 0;
T_11.53 ;
    %load/vec4 v0x632ab907b200_0;
    %flag_set/vec4 9;
    %flag_get/vec4 9;
    %jmp/0 T_11.64, 9;
    %load/vec4 v0x632ab907b060_0;
    %and;
T_11.64;
    %flag_set/vec4 8;
    %jmp/0xz  T_11.62, 8;
    %pushi/vec4 0, 0, 1;
    %assign/vec4 v0x632ab907b200_0, 0;
T_11.62 ;
T_11.1 ;
    %jmp T_11;
    .thread T_11;
    .scope S_0x632ab907e850;
T_12 ;
    %pushi/vec4 0, 0, 32;
    %store/vec4 v0x632ab907f940_0, 0, 32;
    %pushi/vec4 0, 0, 1;
    %store/vec4 v0x632ab907fa80_0, 0, 1;
    %pushi/vec4 0, 0, 32;
    %store/vec4 v0x632ab907ffe0_0, 0, 32;
    %pushi/vec4 0, 0, 4;
    %store/vec4 v0x632ab9080250_0, 0, 4;
    %pushi/vec4 0, 0, 1;
    %store/vec4 v0x632ab9080310_0, 0, 1;
    %pushi/vec4 0, 0, 1;
    %store/vec4 v0x632ab907fb20_0, 0, 1;
    %pushi/vec4 0, 0, 32;
    %store/vec4 v0x632ab907f650_0, 0, 32;
    %pushi/vec4 0, 0, 1;
    %store/vec4 v0x632ab907f850_0, 0, 1;
    %pushi/vec4 0, 0, 1;
    %store/vec4 v0x632ab907fde0_0, 0, 1;
    %end;
    .thread T_12;
    .scope S_0x632ab90806b0;
T_13 ;
    %wait E_0x632ab8fdc7a0;
    %load/vec4 v0x632ab9080da0_0;
    %nor/r;
    %flag_set/vec4 8;
    %jmp/0xz  T_13.0, 8;
    %pushi/vec4 0, 0, 32;
    %store/vec4 v0x632ab90819c0_0, 0, 32;
    %pushi/vec4 0, 0, 32;
    %store/vec4 v0x632ab9081aa0_0, 0, 32;
    %pushi/vec4 0, 0, 4;
    %store/vec4 v0x632ab9081b80_0, 0, 4;
    %pushi/vec4 0, 0, 1;
    %store/vec4 v0x632ab9081130_0, 0, 1;
    %pushi/vec4 0, 0, 1;
    %store/vec4 v0x632ab90821e0_0, 0, 1;
    %jmp T_13.1;
T_13.0 ;
    %load/vec4 v0x632ab9081450_0;
    %flag_set/vec4 9;
    %flag_get/vec4 9;
    %jmp/0 T_13.4, 9;
    %load/vec4 v0x632ab9081320_0;
    %and;
T_13.4;
    %flag_set/vec4 8;
    %jmp/0xz  T_13.2, 8;
    %load/vec4 v0x632ab90811d0_0;
    %store/vec4 v0x632ab90819c0_0, 0, 32;
    %pushi/vec4 1, 0, 1;
    %store/vec4 v0x632ab9081130_0, 0, 1;
    %vpi_call/w 8 73 "$display", "[MONITOR] AW HANDSHAKE: ADDR=%h", v0x632ab90811d0_0 {0 0 0};
T_13.2 ;
    %load/vec4 v0x632ab9082670_0;
    %flag_set/vec4 9;
    %flag_get/vec4 9;
    %jmp/0 T_13.7, 9;
    %load/vec4 v0x632ab90823f0_0;
    %and;
T_13.7;
    %flag_set/vec4 8;
    %jmp/0xz  T_13.5, 8;
    %load/vec4 v0x632ab90822a0_0;
    %store/vec4 v0x632ab9081aa0_0, 0, 32;
    %load/vec4 v0x632ab9082520_0;
    %store/vec4 v0x632ab9081b80_0, 0, 4;
    %pushi/vec4 1, 0, 1;
    %store/vec4 v0x632ab90821e0_0, 0, 1;
    %vpi_call/w 8 89 "$display", "[MONITOR] W HANDSHAKE: DATA=%h WSTRB=%b", v0x632ab90822a0_0, v0x632ab9082520_0 {0 0 0};
T_13.5 ;
    %load/vec4 v0x632ab9081890_0;
    %flag_set/vec4 9;
    %flag_get/vec4 9;
    %jmp/0 T_13.10, 9;
    %load/vec4 v0x632ab9081610_0;
    %and;
T_13.10;
    %flag_set/vec4 8;
    %jmp/0xz  T_13.8, 8;
    %vpi_call/w 8 104 "$display", "[MONITOR] WRITE COMPLETE: ADDR=%h DATA=%h WSTRB=%b BRESP=%b", v0x632ab90819c0_0, v0x632ab9081aa0_0, v0x632ab9081b80_0, v0x632ab9081740_0 {0 0 0};
    %pushi/vec4 0, 0, 1;
    %store/vec4 v0x632ab9081130_0, 0, 1;
    %pushi/vec4 0, 0, 1;
    %store/vec4 v0x632ab90821e0_0, 0, 1;
T_13.8 ;
    %load/vec4 v0x632ab9081000_0;
    %flag_set/vec4 9;
    %flag_get/vec4 9;
    %jmp/0 T_13.13, 9;
    %load/vec4 v0x632ab9080ed0_0;
    %and;
T_13.13;
    %flag_set/vec4 8;
    %jmp/0xz  T_13.11, 8;
    %vpi_call/w 8 124 "$display", "[MONITOR] AR HANDSHAKE: ADDR=%h", v0x632ab9080c50_0 {0 0 0};
T_13.11 ;
    %load/vec4 v0x632ab90820b0_0;
    %flag_set/vec4 9;
    %flag_get/vec4 9;
    %jmp/0 T_13.16, 9;
    %load/vec4 v0x632ab9081db0_0;
    %and;
T_13.16;
    %flag_set/vec4 8;
    %jmp/0xz  T_13.14, 8;
    %vpi_call/w 8 138 "$display", "[MONITOR] READ COMPLETE: DATA=%h RRESP=%b", v0x632ab9081c60_0, v0x632ab9081f60_0 {0 0 0};
T_13.14 ;
T_13.1 ;
    %jmp T_13;
    .thread T_13;
    .scope S_0x632ab9082aa0;
T_14 ;
    %wait E_0x632ab8fdc7a0;
    %load/vec4 v0x632ab9083080_0;
    %nor/r;
    %flag_set/vec4 8;
    %jmp/0xz  T_14.0, 8;
    %pushi/vec4 0, 0, 32;
    %store/vec4 v0x632ab9083760_0, 0, 32;
    %pushi/vec4 0, 0, 32;
    %store/vec4 v0x632ab9083800_0, 0, 32;
    %pushi/vec4 0, 0, 32;
    %store/vec4 v0x632ab90838a0_0, 0, 32;
    %pushi/vec4 0, 0, 32;
    %store/vec4 v0x632ab9083940_0, 0, 32;
    %pushi/vec4 0, 0, 32;
    %store/vec4 v0x632ab90836c0_0, 0, 32;
    %pushi/vec4 0, 0, 32;
    %store/vec4 v0x632ab9083af0_0, 0, 32;
    %pushi/vec4 0, 0, 4;
    %store/vec4 v0x632ab9083b90_0, 0, 4;
    %pushi/vec4 0, 0, 1;
    %store/vec4 v0x632ab9083260_0, 0, 1;
    %pushi/vec4 0, 0, 1;
    %store/vec4 v0x632ab9083eb0_0, 0, 1;
    %jmp T_14.1;
T_14.0 ;
    %load/vec4 v0x632ab9083440_0;
    %flag_set/vec4 9;
    %flag_get/vec4 9;
    %jmp/0 T_14.4, 9;
    %load/vec4 v0x632ab90833a0_0;
    %and;
T_14.4;
    %flag_set/vec4 8;
    %jmp/0xz  T_14.2, 8;
    %load/vec4 v0x632ab9083300_0;
    %store/vec4 v0x632ab90836c0_0, 0, 32;
    %pushi/vec4 1, 0, 1;
    %store/vec4 v0x632ab9083260_0, 0, 1;
    %vpi_call/w 9 90 "$display", "[SCOREBOARD] AW CAPTURED: ADDR=%h", v0x632ab9083300_0 {0 0 0};
T_14.2 ;
    %load/vec4 v0x632ab9084130_0;
    %flag_set/vec4 9;
    %flag_get/vec4 9;
    %jmp/0 T_14.7, 9;
    %load/vec4 v0x632ab9083ff0_0;
    %and;
T_14.7;
    %flag_set/vec4 8;
    %jmp/0xz  T_14.5, 8;
    %load/vec4 v0x632ab9083f50_0;
    %store/vec4 v0x632ab9083af0_0, 0, 32;
    %load/vec4 v0x632ab9084090_0;
    %store/vec4 v0x632ab9083b90_0, 0, 4;
    %pushi/vec4 1, 0, 1;
    %store/vec4 v0x632ab9083eb0_0, 0, 1;
    %vpi_call/w 9 108 "$display", "[SCOREBOARD] W CAPTURED: DATA=%h WSTRB=%b", v0x632ab9083f50_0, v0x632ab9084090_0 {0 0 0};
T_14.5 ;
    %load/vec4 v0x632ab9083260_0;
    %flag_set/vec4 9;
    %flag_get/vec4 9;
    %jmp/0 T_14.10, 9;
    %load/vec4 v0x632ab9083eb0_0;
    %and;
T_14.10;
    %flag_set/vec4 8;
    %jmp/0xz  T_14.8, 8;
    %load/vec4 v0x632ab90836c0_0;
    %parti/s 4, 2, 3;
    %dup/vec4;
    %pushi/vec4 0, 0, 4;
    %cmp/u;
    %jmp/1 T_14.11, 6;
    %dup/vec4;
    %pushi/vec4 1, 0, 4;
    %cmp/u;
    %jmp/1 T_14.12, 6;
    %dup/vec4;
    %pushi/vec4 2, 0, 4;
    %cmp/u;
    %jmp/1 T_14.13, 6;
    %dup/vec4;
    %pushi/vec4 3, 0, 4;
    %cmp/u;
    %jmp/1 T_14.14, 6;
    %jmp T_14.16;
T_14.11 ;
    %load/vec4 v0x632ab9083b90_0;
    %parti/s 1, 0, 2;
    %flag_set/vec4 8;
    %jmp/0xz  T_14.17, 8;
    %load/vec4 v0x632ab9083af0_0;
    %parti/s 8, 0, 2;
    %ix/load 4, 0, 0;
    %flag_set/imm 4, 0;
    %store/vec4 v0x632ab9083760_0, 4, 8;
T_14.17 ;
    %load/vec4 v0x632ab9083b90_0;
    %parti/s 1, 1, 2;
    %flag_set/vec4 8;
    %jmp/0xz  T_14.19, 8;
    %load/vec4 v0x632ab9083af0_0;
    %parti/s 8, 8, 5;
    %ix/load 4, 8, 0;
    %flag_set/imm 4, 0;
    %store/vec4 v0x632ab9083760_0, 4, 8;
T_14.19 ;
    %load/vec4 v0x632ab9083b90_0;
    %parti/s 1, 2, 3;
    %flag_set/vec4 8;
    %jmp/0xz  T_14.21, 8;
    %load/vec4 v0x632ab9083af0_0;
    %parti/s 8, 16, 6;
    %ix/load 4, 16, 0;
    %flag_set/imm 4, 0;
    %store/vec4 v0x632ab9083760_0, 4, 8;
T_14.21 ;
    %load/vec4 v0x632ab9083b90_0;
    %parti/s 1, 3, 3;
    %flag_set/vec4 8;
    %jmp/0xz  T_14.23, 8;
    %load/vec4 v0x632ab9083af0_0;
    %parti/s 8, 24, 6;
    %ix/load 4, 24, 0;
    %flag_set/imm 4, 0;
    %store/vec4 v0x632ab9083760_0, 4, 8;
T_14.23 ;
    %jmp T_14.16;
T_14.12 ;
    %load/vec4 v0x632ab9083b90_0;
    %parti/s 1, 0, 2;
    %flag_set/vec4 8;
    %jmp/0xz  T_14.25, 8;
    %load/vec4 v0x632ab9083af0_0;
    %parti/s 8, 0, 2;
    %ix/load 4, 0, 0;
    %flag_set/imm 4, 0;
    %store/vec4 v0x632ab9083800_0, 4, 8;
T_14.25 ;
    %load/vec4 v0x632ab9083b90_0;
    %parti/s 1, 1, 2;
    %flag_set/vec4 8;
    %jmp/0xz  T_14.27, 8;
    %load/vec4 v0x632ab9083af0_0;
    %parti/s 8, 8, 5;
    %ix/load 4, 8, 0;
    %flag_set/imm 4, 0;
    %store/vec4 v0x632ab9083800_0, 4, 8;
T_14.27 ;
    %load/vec4 v0x632ab9083b90_0;
    %parti/s 1, 2, 3;
    %flag_set/vec4 8;
    %jmp/0xz  T_14.29, 8;
    %load/vec4 v0x632ab9083af0_0;
    %parti/s 8, 16, 6;
    %ix/load 4, 16, 0;
    %flag_set/imm 4, 0;
    %store/vec4 v0x632ab9083800_0, 4, 8;
T_14.29 ;
    %load/vec4 v0x632ab9083b90_0;
    %parti/s 1, 3, 3;
    %flag_set/vec4 8;
    %jmp/0xz  T_14.31, 8;
    %load/vec4 v0x632ab9083af0_0;
    %parti/s 8, 24, 6;
    %ix/load 4, 24, 0;
    %flag_set/imm 4, 0;
    %store/vec4 v0x632ab9083800_0, 4, 8;
T_14.31 ;
    %jmp T_14.16;
T_14.13 ;
    %load/vec4 v0x632ab9083b90_0;
    %parti/s 1, 0, 2;
    %flag_set/vec4 8;
    %jmp/0xz  T_14.33, 8;
    %load/vec4 v0x632ab9083af0_0;
    %parti/s 8, 0, 2;
    %ix/load 4, 0, 0;
    %flag_set/imm 4, 0;
    %store/vec4 v0x632ab90838a0_0, 4, 8;
T_14.33 ;
    %load/vec4 v0x632ab9083b90_0;
    %parti/s 1, 1, 2;
    %flag_set/vec4 8;
    %jmp/0xz  T_14.35, 8;
    %load/vec4 v0x632ab9083af0_0;
    %parti/s 8, 8, 5;
    %ix/load 4, 8, 0;
    %flag_set/imm 4, 0;
    %store/vec4 v0x632ab90838a0_0, 4, 8;
T_14.35 ;
    %load/vec4 v0x632ab9083b90_0;
    %parti/s 1, 2, 3;
    %flag_set/vec4 8;
    %jmp/0xz  T_14.37, 8;
    %load/vec4 v0x632ab9083af0_0;
    %parti/s 8, 16, 6;
    %ix/load 4, 16, 0;
    %flag_set/imm 4, 0;
    %store/vec4 v0x632ab90838a0_0, 4, 8;
T_14.37 ;
    %load/vec4 v0x632ab9083b90_0;
    %parti/s 1, 3, 3;
    %flag_set/vec4 8;
    %jmp/0xz  T_14.39, 8;
    %load/vec4 v0x632ab9083af0_0;
    %parti/s 8, 24, 6;
    %ix/load 4, 24, 0;
    %flag_set/imm 4, 0;
    %store/vec4 v0x632ab90838a0_0, 4, 8;
T_14.39 ;
    %jmp T_14.16;
T_14.14 ;
    %load/vec4 v0x632ab9083b90_0;
    %parti/s 1, 0, 2;
    %flag_set/vec4 8;
    %jmp/0xz  T_14.41, 8;
    %load/vec4 v0x632ab9083af0_0;
    %parti/s 8, 0, 2;
    %ix/load 4, 0, 0;
    %flag_set/imm 4, 0;
    %store/vec4 v0x632ab9083940_0, 4, 8;
T_14.41 ;
    %load/vec4 v0x632ab9083b90_0;
    %parti/s 1, 1, 2;
    %flag_set/vec4 8;
    %jmp/0xz  T_14.43, 8;
    %load/vec4 v0x632ab9083af0_0;
    %parti/s 8, 8, 5;
    %ix/load 4, 8, 0;
    %flag_set/imm 4, 0;
    %store/vec4 v0x632ab9083940_0, 4, 8;
T_14.43 ;
    %load/vec4 v0x632ab9083b90_0;
    %parti/s 1, 2, 3;
    %flag_set/vec4 8;
    %jmp/0xz  T_14.45, 8;
    %load/vec4 v0x632ab9083af0_0;
    %parti/s 8, 16, 6;
    %ix/load 4, 16, 0;
    %flag_set/imm 4, 0;
    %store/vec4 v0x632ab9083940_0, 4, 8;
T_14.45 ;
    %load/vec4 v0x632ab9083b90_0;
    %parti/s 1, 3, 3;
    %flag_set/vec4 8;
    %jmp/0xz  T_14.47, 8;
    %load/vec4 v0x632ab9083af0_0;
    %parti/s 8, 24, 6;
    %ix/load 4, 24, 0;
    %flag_set/imm 4, 0;
    %store/vec4 v0x632ab9083940_0, 4, 8;
T_14.47 ;
    %jmp T_14.16;
T_14.16 ;
    %pop/vec4 1;
    %pushi/vec4 0, 0, 1;
    %store/vec4 v0x632ab9083260_0, 0, 1;
    %pushi/vec4 0, 0, 1;
    %store/vec4 v0x632ab9083eb0_0, 0, 1;
T_14.8 ;
    %load/vec4 v0x632ab9083620_0;
    %flag_set/vec4 9;
    %flag_get/vec4 9;
    %jmp/0 T_14.51, 9;
    %load/vec4 v0x632ab90834e0_0;
    %and;
T_14.51;
    %flag_set/vec4 8;
    %jmp/0xz  T_14.49, 8;
    %load/vec4 v0x632ab9083580_0;
    %cmpi/e 0, 0, 2;
    %jmp/0xz  T_14.52, 4;
    %vpi_call/w 9 234 "$display", "[SCOREBOARD] WRITE RESPONSE PASS: BRESP=OKAY" {0 0 0};
    %jmp T_14.53;
T_14.52 ;
    %load/vec4 v0x632ab9083580_0;
    %cmpi/e 2, 0, 2;
    %jmp/0xz  T_14.54, 4;
    %vpi_call/w 9 242 "$display", "[SCOREBOARD] WRITE RESPONSE: SLVERR" {0 0 0};
    %jmp T_14.55;
T_14.54 ;
    %vpi_call/w 9 250 "$error", "[SCOREBOARD] INVALID BRESP=%b", v0x632ab9083580_0 {0 0 0};
T_14.55 ;
T_14.53 ;
T_14.49 ;
    %load/vec4 v0x632ab9083e10_0;
    %flag_set/vec4 9;
    %flag_get/vec4 9;
    %jmp/0 T_14.58, 9;
    %load/vec4 v0x632ab9083cd0_0;
    %and;
T_14.58;
    %flag_set/vec4 8;
    %jmp/0xz  T_14.56, 8;
    %load/vec4 v0x632ab9082fe0_0;
    %parti/s 4, 2, 3;
    %dup/vec4;
    %pushi/vec4 0, 0, 4;
    %cmp/u;
    %jmp/1 T_14.59, 6;
    %dup/vec4;
    %pushi/vec4 1, 0, 4;
    %cmp/u;
    %jmp/1 T_14.60, 6;
    %dup/vec4;
    %pushi/vec4 2, 0, 4;
    %cmp/u;
    %jmp/1 T_14.61, 6;
    %dup/vec4;
    %pushi/vec4 3, 0, 4;
    %cmp/u;
    %jmp/1 T_14.62, 6;
    %load/vec4 v0x632ab9083c30_0;
    %cmpi/e 0, 0, 32;
    %jmp/0xz  T_14.65, 6;
    %vpi_call/w 9 347 "$display", "[SCOREBOARD] INVALID READ PASS: DATA=0" {0 0 0};
    %jmp T_14.66;
T_14.65 ;
    %vpi_call/w 9 351 "$error", "[SCOREBOARD] INVALID READ FAIL: DATA=%h", v0x632ab9083c30_0 {0 0 0};
T_14.66 ;
    %jmp T_14.64;
T_14.59 ;
    %load/vec4 v0x632ab9083c30_0;
    %load/vec4 v0x632ab9083760_0;
    %cmp/e;
    %jmp/0xz  T_14.67, 6;
    %vpi_call/w 9 271 "$display", "[SCOREBOARD] READ PASS: ADDR=%h DATA=%h", v0x632ab9082fe0_0, v0x632ab9083c30_0 {0 0 0};
    %jmp T_14.68;
T_14.67 ;
    %vpi_call/w 9 277 "$error", "[SCOREBOARD] READ FAIL: ADDR=%h EXPECTED=%h ACTUAL=%h", v0x632ab9082fe0_0, v0x632ab9083760_0, v0x632ab9083c30_0 {0 0 0};
T_14.68 ;
    %jmp T_14.64;
T_14.60 ;
    %load/vec4 v0x632ab9083c30_0;
    %load/vec4 v0x632ab9083800_0;
    %cmp/e;
    %jmp/0xz  T_14.69, 6;
    %vpi_call/w 9 290 "$display", "[SCOREBOARD] READ PASS: ADDR=%h DATA=%h", v0x632ab9082fe0_0, v0x632ab9083c30_0 {0 0 0};
    %jmp T_14.70;
T_14.69 ;
    %vpi_call/w 9 296 "$error", "[SCOREBOARD] READ FAIL: ADDR=%h EXPECTED=%h ACTUAL=%h", v0x632ab9082fe0_0, v0x632ab9083800_0, v0x632ab9083c30_0 {0 0 0};
T_14.70 ;
    %jmp T_14.64;
T_14.61 ;
    %load/vec4 v0x632ab9083c30_0;
    %load/vec4 v0x632ab90838a0_0;
    %cmp/e;
    %jmp/0xz  T_14.71, 6;
    %vpi_call/w 9 309 "$display", "[SCOREBOARD] READ PASS: ADDR=%h DATA=%h", v0x632ab9082fe0_0, v0x632ab9083c30_0 {0 0 0};
    %jmp T_14.72;
T_14.71 ;
    %vpi_call/w 9 315 "$error", "[SCOREBOARD] READ FAIL: ADDR=%h EXPECTED=%h ACTUAL=%h", v0x632ab9082fe0_0, v0x632ab90838a0_0, v0x632ab9083c30_0 {0 0 0};
T_14.72 ;
    %jmp T_14.64;
T_14.62 ;
    %load/vec4 v0x632ab9083c30_0;
    %load/vec4 v0x632ab9083940_0;
    %cmp/e;
    %jmp/0xz  T_14.73, 6;
    %vpi_call/w 9 328 "$display", "[SCOREBOARD] READ PASS: ADDR=%h DATA=%h", v0x632ab9082fe0_0, v0x632ab9083c30_0 {0 0 0};
    %jmp T_14.74;
T_14.73 ;
    %vpi_call/w 9 334 "$error", "[SCOREBOARD] READ FAIL: ADDR=%h EXPECTED=%h ACTUAL=%h", v0x632ab9082fe0_0, v0x632ab9083940_0, v0x632ab9083c30_0 {0 0 0};
T_14.74 ;
    %jmp T_14.64;
T_14.64 ;
    %pop/vec4 1;
T_14.56 ;
T_14.1 ;
    %jmp T_14;
    .thread T_14;
    .scope S_0x632ab8f953b0;
T_15 ;
    %pushi/vec4 0, 0, 32;
    %store/vec4 v0x632ab9078b00_0, 0, 32;
    %pushi/vec4 0, 0, 32;
    %store/vec4 v0x632ab9078be0_0, 0, 32;
    %pushi/vec4 0, 0, 32;
    %store/vec4 v0x632ab9078cc0_0, 0, 32;
    %pushi/vec4 0, 0, 32;
    %store/vec4 v0x632ab9078da0_0, 0, 32;
    %pushi/vec4 0, 0, 32;
    %store/vec4 v0x632ab9078a20_0, 0, 32;
    %pushi/vec4 0, 0, 32;
    %store/vec4 v0x632ab9078000_0, 0, 32;
    %pushi/vec4 0, 0, 32;
    %store/vec4 v0x632ab90780e0_0, 0, 32;
    %pushi/vec4 0, 0, 32;
    %store/vec4 v0x632ab90781c0_0, 0, 32;
    %pushi/vec4 0, 0, 32;
    %store/vec4 v0x632ab90782a0_0, 0, 32;
    %pushi/vec4 0, 0, 32;
    %store/vec4 v0x632ab9077f20_0, 0, 32;
    %pushi/vec4 0, 0, 32;
    %store/vec4 v0x632ab90793c0_0, 0, 32;
    %pushi/vec4 0, 0, 32;
    %store/vec4 v0x632ab9079040_0, 0, 32;
    %pushi/vec4 0, 0, 32;
    %store/vec4 v0x632ab9079120_0, 0, 32;
    %pushi/vec4 0, 0, 32;
    %store/vec4 v0x632ab9079200_0, 0, 32;
    %pushi/vec4 0, 0, 32;
    %store/vec4 v0x632ab90792e0_0, 0, 32;
    %pushi/vec4 0, 0, 32;
    %store/vec4 v0x632ab90794a0_0, 0, 32;
    %pushi/vec4 0, 0, 32;
    %store/vec4 v0x632ab9078f60_0, 0, 32;
    %pushi/vec4 0, 0, 32;
    %store/vec4 v0x632ab9077a20_0, 0, 32;
    %pushi/vec4 0, 0, 32;
    %store/vec4 v0x632ab9077b00_0, 0, 32;
    %pushi/vec4 0, 0, 32;
    %store/vec4 v0x632ab9078520_0, 0, 32;
    %pushi/vec4 0, 0, 32;
    %store/vec4 v0x632ab9078600_0, 0, 32;
    %end;
    .thread T_15;
    .scope S_0x632ab8f953b0;
T_16 ;
    %wait E_0x632ab8fdc7a0;
    %load/vec4 v0x632ab8fa63a0_0;
    %flag_set/vec4 8;
    %jmp/0xz  T_16.0, 8;
    %load/vec4 v0x632ab90777c0_0;
    %flag_set/vec4 9;
    %flag_get/vec4 9;
    %jmp/0 T_16.4, 9;
    %load/vec4 v0x632ab9077700_0;
    %and;
T_16.4;
    %flag_set/vec4 8;
    %jmp/0xz  T_16.2, 8;
    %load/vec4 v0x632ab8fda810_0;
    %parti/s 4, 2, 3;
    %dup/vec4;
    %pushi/vec4 0, 0, 4;
    %cmp/u;
    %jmp/1 T_16.5, 6;
    %dup/vec4;
    %pushi/vec4 1, 0, 4;
    %cmp/u;
    %jmp/1 T_16.6, 6;
    %dup/vec4;
    %pushi/vec4 2, 0, 4;
    %cmp/u;
    %jmp/1 T_16.7, 6;
    %dup/vec4;
    %pushi/vec4 3, 0, 4;
    %cmp/u;
    %jmp/1 T_16.8, 6;
    %load/vec4 v0x632ab9078a20_0;
    %addi 1, 0, 32;
    %store/vec4 v0x632ab9078a20_0, 0, 32;
    %jmp T_16.10;
T_16.5 ;
    %load/vec4 v0x632ab9078b00_0;
    %addi 1, 0, 32;
    %store/vec4 v0x632ab9078b00_0, 0, 32;
    %jmp T_16.10;
T_16.6 ;
    %load/vec4 v0x632ab9078be0_0;
    %addi 1, 0, 32;
    %store/vec4 v0x632ab9078be0_0, 0, 32;
    %jmp T_16.10;
T_16.7 ;
    %load/vec4 v0x632ab9078cc0_0;
    %addi 1, 0, 32;
    %store/vec4 v0x632ab9078cc0_0, 0, 32;
    %jmp T_16.10;
T_16.8 ;
    %load/vec4 v0x632ab9078da0_0;
    %addi 1, 0, 32;
    %store/vec4 v0x632ab9078da0_0, 0, 32;
    %jmp T_16.10;
T_16.10 ;
    %pop/vec4 1;
T_16.2 ;
    %load/vec4 v0x632ab9079580_0;
    %flag_set/vec4 9;
    %flag_get/vec4 9;
    %jmp/0 T_16.13, 9;
    %load/vec4 v0x632ab9078960_0;
    %and;
T_16.13;
    %flag_set/vec4 8;
    %jmp/0xz  T_16.11, 8;
    %load/vec4 v0x632ab9078e80_0;
    %dup/vec4;
    %pushi/vec4 15, 0, 4;
    %cmp/u;
    %jmp/1 T_16.14, 6;
    %dup/vec4;
    %pushi/vec4 1, 0, 4;
    %cmp/u;
    %jmp/1 T_16.15, 6;
    %dup/vec4;
    %pushi/vec4 2, 0, 4;
    %cmp/u;
    %jmp/1 T_16.16, 6;
    %dup/vec4;
    %pushi/vec4 4, 0, 4;
    %cmp/u;
    %jmp/1 T_16.17, 6;
    %dup/vec4;
    %pushi/vec4 8, 0, 4;
    %cmp/u;
    %jmp/1 T_16.18, 6;
    %dup/vec4;
    %pushi/vec4 0, 0, 4;
    %cmp/u;
    %jmp/1 T_16.19, 6;
    %load/vec4 v0x632ab90794a0_0;
    %addi 1, 0, 32;
    %store/vec4 v0x632ab90794a0_0, 0, 32;
    %jmp T_16.21;
T_16.14 ;
    %load/vec4 v0x632ab90793c0_0;
    %addi 1, 0, 32;
    %store/vec4 v0x632ab90793c0_0, 0, 32;
    %jmp T_16.21;
T_16.15 ;
    %load/vec4 v0x632ab9079040_0;
    %addi 1, 0, 32;
    %store/vec4 v0x632ab9079040_0, 0, 32;
    %jmp T_16.21;
T_16.16 ;
    %load/vec4 v0x632ab9079120_0;
    %addi 1, 0, 32;
    %store/vec4 v0x632ab9079120_0, 0, 32;
    %jmp T_16.21;
T_16.17 ;
    %load/vec4 v0x632ab9079200_0;
    %addi 1, 0, 32;
    %store/vec4 v0x632ab9079200_0, 0, 32;
    %jmp T_16.21;
T_16.18 ;
    %load/vec4 v0x632ab90792e0_0;
    %addi 1, 0, 32;
    %store/vec4 v0x632ab90792e0_0, 0, 32;
    %jmp T_16.21;
T_16.19 ;
    %load/vec4 v0x632ab9078f60_0;
    %addi 1, 0, 32;
    %store/vec4 v0x632ab9078f60_0, 0, 32;
    %jmp T_16.21;
T_16.21 ;
    %pop/vec4 1;
T_16.11 ;
    %load/vec4 v0x632ab9077be0_0;
    %flag_set/vec4 9;
    %flag_get/vec4 9;
    %jmp/0 T_16.24, 9;
    %load/vec4 v0x632ab9077880_0;
    %and;
T_16.24;
    %flag_set/vec4 8;
    %jmp/0xz  T_16.22, 8;
    %load/vec4 v0x632ab9077940_0;
    %cmpi/e 0, 0, 2;
    %jmp/0xz  T_16.25, 4;
    %load/vec4 v0x632ab9077a20_0;
    %addi 1, 0, 32;
    %store/vec4 v0x632ab9077a20_0, 0, 32;
    %jmp T_16.26;
T_16.25 ;
    %load/vec4 v0x632ab9077940_0;
    %cmpi/e 2, 0, 2;
    %jmp/0xz  T_16.27, 4;
    %load/vec4 v0x632ab9077b00_0;
    %addi 1, 0, 32;
    %store/vec4 v0x632ab9077b00_0, 0, 32;
T_16.27 ;
T_16.26 ;
T_16.22 ;
    %load/vec4 v0x632ab8fc80c0_0;
    %flag_set/vec4 9;
    %flag_get/vec4 9;
    %jmp/0 T_16.31, 9;
    %load/vec4 v0x632ab8f46d20_0;
    %and;
T_16.31;
    %flag_set/vec4 8;
    %jmp/0xz  T_16.29, 8;
    %load/vec4 v0x632ab8fb0a50_0;
    %parti/s 4, 2, 3;
    %dup/vec4;
    %pushi/vec4 0, 0, 4;
    %cmp/u;
    %jmp/1 T_16.32, 6;
    %dup/vec4;
    %pushi/vec4 1, 0, 4;
    %cmp/u;
    %jmp/1 T_16.33, 6;
    %dup/vec4;
    %pushi/vec4 2, 0, 4;
    %cmp/u;
    %jmp/1 T_16.34, 6;
    %dup/vec4;
    %pushi/vec4 3, 0, 4;
    %cmp/u;
    %jmp/1 T_16.35, 6;
    %load/vec4 v0x632ab9077f20_0;
    %addi 1, 0, 32;
    %store/vec4 v0x632ab9077f20_0, 0, 32;
    %jmp T_16.37;
T_16.32 ;
    %load/vec4 v0x632ab9078000_0;
    %addi 1, 0, 32;
    %store/vec4 v0x632ab9078000_0, 0, 32;
    %jmp T_16.37;
T_16.33 ;
    %load/vec4 v0x632ab90780e0_0;
    %addi 1, 0, 32;
    %store/vec4 v0x632ab90780e0_0, 0, 32;
    %jmp T_16.37;
T_16.34 ;
    %load/vec4 v0x632ab90781c0_0;
    %addi 1, 0, 32;
    %store/vec4 v0x632ab90781c0_0, 0, 32;
    %jmp T_16.37;
T_16.35 ;
    %load/vec4 v0x632ab90782a0_0;
    %addi 1, 0, 32;
    %store/vec4 v0x632ab90782a0_0, 0, 32;
    %jmp T_16.37;
T_16.37 ;
    %pop/vec4 1;
T_16.29 ;
    %load/vec4 v0x632ab90786e0_0;
    %flag_set/vec4 9;
    %flag_get/vec4 9;
    %jmp/0 T_16.40, 9;
    %load/vec4 v0x632ab9078380_0;
    %and;
T_16.40;
    %flag_set/vec4 8;
    %jmp/0xz  T_16.38, 8;
    %load/vec4 v0x632ab9078440_0;
    %cmpi/e 0, 0, 2;
    %jmp/0xz  T_16.41, 4;
    %load/vec4 v0x632ab9078520_0;
    %addi 1, 0, 32;
    %store/vec4 v0x632ab9078520_0, 0, 32;
    %jmp T_16.42;
T_16.41 ;
    %load/vec4 v0x632ab9078440_0;
    %cmpi/e 2, 0, 2;
    %jmp/0xz  T_16.43, 4;
    %load/vec4 v0x632ab9078600_0;
    %addi 1, 0, 32;
    %store/vec4 v0x632ab9078600_0, 0, 32;
T_16.43 ;
T_16.42 ;
T_16.38 ;
T_16.0 ;
    %jmp T_16;
    .thread T_16;
    .scope S_0x632ab8f953b0;
T_17 ;
    %pushi/vec4 21, 0, 32;
    %store/vec4 v0x632ab90787a0_0, 0, 32;
    %pushi/vec4 0, 0, 32;
    %store/vec4 v0x632ab9077d60_0, 0, 32;
    %load/vec4 v0x632ab9078b00_0;
    %cmpi/s 0, 0, 32;
    %flag_or 5, 4; GT is !LE
    %flag_inv 5;
    %jmp/0xz  T_17.0, 5;
    %load/vec4 v0x632ab9077d60_0;
    %addi 1, 0, 32;
    %store/vec4 v0x632ab9077d60_0, 0, 32;
T_17.0 ;
    %load/vec4 v0x632ab9078be0_0;
    %cmpi/s 0, 0, 32;
    %flag_or 5, 4; GT is !LE
    %flag_inv 5;
    %jmp/0xz  T_17.2, 5;
    %load/vec4 v0x632ab9077d60_0;
    %addi 1, 0, 32;
    %store/vec4 v0x632ab9077d60_0, 0, 32;
T_17.2 ;
    %load/vec4 v0x632ab9078cc0_0;
    %cmpi/s 0, 0, 32;
    %flag_or 5, 4; GT is !LE
    %flag_inv 5;
    %jmp/0xz  T_17.4, 5;
    %load/vec4 v0x632ab9077d60_0;
    %addi 1, 0, 32;
    %store/vec4 v0x632ab9077d60_0, 0, 32;
T_17.4 ;
    %load/vec4 v0x632ab9078da0_0;
    %cmpi/s 0, 0, 32;
    %flag_or 5, 4; GT is !LE
    %flag_inv 5;
    %jmp/0xz  T_17.6, 5;
    %load/vec4 v0x632ab9077d60_0;
    %addi 1, 0, 32;
    %store/vec4 v0x632ab9077d60_0, 0, 32;
T_17.6 ;
    %load/vec4 v0x632ab9078a20_0;
    %cmpi/s 0, 0, 32;
    %flag_or 5, 4; GT is !LE
    %flag_inv 5;
    %jmp/0xz  T_17.8, 5;
    %load/vec4 v0x632ab9077d60_0;
    %addi 1, 0, 32;
    %store/vec4 v0x632ab9077d60_0, 0, 32;
T_17.8 ;
    %load/vec4 v0x632ab9078000_0;
    %cmpi/s 0, 0, 32;
    %flag_or 5, 4; GT is !LE
    %flag_inv 5;
    %jmp/0xz  T_17.10, 5;
    %load/vec4 v0x632ab9077d60_0;
    %addi 1, 0, 32;
    %store/vec4 v0x632ab9077d60_0, 0, 32;
T_17.10 ;
    %load/vec4 v0x632ab90780e0_0;
    %cmpi/s 0, 0, 32;
    %flag_or 5, 4; GT is !LE
    %flag_inv 5;
    %jmp/0xz  T_17.12, 5;
    %load/vec4 v0x632ab9077d60_0;
    %addi 1, 0, 32;
    %store/vec4 v0x632ab9077d60_0, 0, 32;
T_17.12 ;
    %load/vec4 v0x632ab90781c0_0;
    %cmpi/s 0, 0, 32;
    %flag_or 5, 4; GT is !LE
    %flag_inv 5;
    %jmp/0xz  T_17.14, 5;
    %load/vec4 v0x632ab9077d60_0;
    %addi 1, 0, 32;
    %store/vec4 v0x632ab9077d60_0, 0, 32;
T_17.14 ;
    %load/vec4 v0x632ab90782a0_0;
    %cmpi/s 0, 0, 32;
    %flag_or 5, 4; GT is !LE
    %flag_inv 5;
    %jmp/0xz  T_17.16, 5;
    %load/vec4 v0x632ab9077d60_0;
    %addi 1, 0, 32;
    %store/vec4 v0x632ab9077d60_0, 0, 32;
T_17.16 ;
    %load/vec4 v0x632ab9077f20_0;
    %cmpi/s 0, 0, 32;
    %flag_or 5, 4; GT is !LE
    %flag_inv 5;
    %jmp/0xz  T_17.18, 5;
    %load/vec4 v0x632ab9077d60_0;
    %addi 1, 0, 32;
    %store/vec4 v0x632ab9077d60_0, 0, 32;
T_17.18 ;
    %load/vec4 v0x632ab90793c0_0;
    %cmpi/s 0, 0, 32;
    %flag_or 5, 4; GT is !LE
    %flag_inv 5;
    %jmp/0xz  T_17.20, 5;
    %load/vec4 v0x632ab9077d60_0;
    %addi 1, 0, 32;
    %store/vec4 v0x632ab9077d60_0, 0, 32;
T_17.20 ;
    %load/vec4 v0x632ab9079040_0;
    %cmpi/s 0, 0, 32;
    %flag_or 5, 4; GT is !LE
    %flag_inv 5;
    %jmp/0xz  T_17.22, 5;
    %load/vec4 v0x632ab9077d60_0;
    %addi 1, 0, 32;
    %store/vec4 v0x632ab9077d60_0, 0, 32;
T_17.22 ;
    %load/vec4 v0x632ab9079120_0;
    %cmpi/s 0, 0, 32;
    %flag_or 5, 4; GT is !LE
    %flag_inv 5;
    %jmp/0xz  T_17.24, 5;
    %load/vec4 v0x632ab9077d60_0;
    %addi 1, 0, 32;
    %store/vec4 v0x632ab9077d60_0, 0, 32;
T_17.24 ;
    %load/vec4 v0x632ab9079200_0;
    %cmpi/s 0, 0, 32;
    %flag_or 5, 4; GT is !LE
    %flag_inv 5;
    %jmp/0xz  T_17.26, 5;
    %load/vec4 v0x632ab9077d60_0;
    %addi 1, 0, 32;
    %store/vec4 v0x632ab9077d60_0, 0, 32;
T_17.26 ;
    %load/vec4 v0x632ab90792e0_0;
    %cmpi/s 0, 0, 32;
    %flag_or 5, 4; GT is !LE
    %flag_inv 5;
    %jmp/0xz  T_17.28, 5;
    %load/vec4 v0x632ab9077d60_0;
    %addi 1, 0, 32;
    %store/vec4 v0x632ab9077d60_0, 0, 32;
T_17.28 ;
    %load/vec4 v0x632ab90794a0_0;
    %cmpi/s 0, 0, 32;
    %flag_or 5, 4; GT is !LE
    %flag_inv 5;
    %jmp/0xz  T_17.30, 5;
    %load/vec4 v0x632ab9077d60_0;
    %addi 1, 0, 32;
    %store/vec4 v0x632ab9077d60_0, 0, 32;
T_17.30 ;
    %load/vec4 v0x632ab9078f60_0;
    %cmpi/s 0, 0, 32;
    %flag_or 5, 4; GT is !LE
    %flag_inv 5;
    %jmp/0xz  T_17.32, 5;
    %load/vec4 v0x632ab9077d60_0;
    %addi 1, 0, 32;
    %store/vec4 v0x632ab9077d60_0, 0, 32;
T_17.32 ;
    %load/vec4 v0x632ab9077a20_0;
    %cmpi/s 0, 0, 32;
    %flag_or 5, 4; GT is !LE
    %flag_inv 5;
    %jmp/0xz  T_17.34, 5;
    %load/vec4 v0x632ab9077d60_0;
    %addi 1, 0, 32;
    %store/vec4 v0x632ab9077d60_0, 0, 32;
T_17.34 ;
    %load/vec4 v0x632ab9077b00_0;
    %cmpi/s 0, 0, 32;
    %flag_or 5, 4; GT is !LE
    %flag_inv 5;
    %jmp/0xz  T_17.36, 5;
    %load/vec4 v0x632ab9077d60_0;
    %addi 1, 0, 32;
    %store/vec4 v0x632ab9077d60_0, 0, 32;
T_17.36 ;
    %load/vec4 v0x632ab9078520_0;
    %cmpi/s 0, 0, 32;
    %flag_or 5, 4; GT is !LE
    %flag_inv 5;
    %jmp/0xz  T_17.38, 5;
    %load/vec4 v0x632ab9077d60_0;
    %addi 1, 0, 32;
    %store/vec4 v0x632ab9077d60_0, 0, 32;
T_17.38 ;
    %load/vec4 v0x632ab9078600_0;
    %cmpi/s 0, 0, 32;
    %flag_or 5, 4; GT is !LE
    %flag_inv 5;
    %jmp/0xz  T_17.40, 5;
    %load/vec4 v0x632ab9077d60_0;
    %addi 1, 0, 32;
    %store/vec4 v0x632ab9077d60_0, 0, 32;
T_17.40 ;
    %load/vec4 v0x632ab9077d60_0;
    %cvt/rv/s;
    %pushi/real 1677721600, 4072; load=100.000
    %mul/wr;
    %load/vec4 v0x632ab90787a0_0;
    %cvt/rv/s;
    %div/wr;
    %store/real v0x632ab9077ca0_0;
    %vpi_call/w 4 308 "$display", "\000" {0 0 0};
    %vpi_call/w 4 309 "$display", "==============================================" {0 0 0};
    %vpi_call/w 4 310 "$display", "       AXI4-LITE FUNCTIONAL COVERAGE" {0 0 0};
    %vpi_call/w 4 311 "$display", "==============================================" {0 0 0};
    %vpi_call/w 4 313 "$display", "WRITE REG0      = %0d", v0x632ab9078b00_0 {0 0 0};
    %vpi_call/w 4 314 "$display", "WRITE REG1      = %0d", v0x632ab9078be0_0 {0 0 0};
    %vpi_call/w 4 315 "$display", "WRITE REG2      = %0d", v0x632ab9078cc0_0 {0 0 0};
    %vpi_call/w 4 316 "$display", "WRITE REG3      = %0d", v0x632ab9078da0_0 {0 0 0};
    %vpi_call/w 4 317 "$display", "WRITE INVALID   = %0d", v0x632ab9078a20_0 {0 0 0};
    %vpi_call/w 4 319 "$display", "\000" {0 0 0};
    %vpi_call/w 4 321 "$display", "READ REG0       = %0d", v0x632ab9078000_0 {0 0 0};
    %vpi_call/w 4 322 "$display", "READ REG1       = %0d", v0x632ab90780e0_0 {0 0 0};
    %vpi_call/w 4 323 "$display", "READ REG2       = %0d", v0x632ab90781c0_0 {0 0 0};
    %vpi_call/w 4 324 "$display", "READ REG3       = %0d", v0x632ab90782a0_0 {0 0 0};
    %vpi_call/w 4 325 "$display", "READ INVALID    = %0d", v0x632ab9077f20_0 {0 0 0};
    %vpi_call/w 4 327 "$display", "\000" {0 0 0};
    %vpi_call/w 4 329 "$display", "WSTRB 1111      = %0d", v0x632ab90793c0_0 {0 0 0};
    %vpi_call/w 4 330 "$display", "WSTRB 0001      = %0d", v0x632ab9079040_0 {0 0 0};
    %vpi_call/w 4 331 "$display", "WSTRB 0010      = %0d", v0x632ab9079120_0 {0 0 0};
    %vpi_call/w 4 332 "$display", "WSTRB 0100      = %0d", v0x632ab9079200_0 {0 0 0};
    %vpi_call/w 4 333 "$display", "WSTRB 1000      = %0d", v0x632ab90792e0_0 {0 0 0};
    %vpi_call/w 4 334 "$display", "WSTRB PARTIAL   = %0d", v0x632ab90794a0_0 {0 0 0};
    %vpi_call/w 4 335 "$display", "WSTRB 0000      = %0d", v0x632ab9078f60_0 {0 0 0};
    %vpi_call/w 4 337 "$display", "\000" {0 0 0};
    %vpi_call/w 4 339 "$display", "BRESP OKAY      = %0d", v0x632ab9077a20_0 {0 0 0};
    %vpi_call/w 4 340 "$display", "BRESP SLVERR    = %0d", v0x632ab9077b00_0 {0 0 0};
    %vpi_call/w 4 341 "$display", "RRESP OKAY      = %0d", v0x632ab9078520_0 {0 0 0};
    %vpi_call/w 4 342 "$display", "RRESP SLVERR    = %0d", v0x632ab9078600_0 {0 0 0};
    %vpi_call/w 4 344 "$display", "\000" {0 0 0};
    %vpi_call/w 4 346 "$display", "COVERED BINS    = %0d / %0d", v0x632ab9077d60_0, v0x632ab90787a0_0 {0 0 0};
    %vpi_call/w 4 350 "$display", "COVERAGE        = %0.2f%%", v0x632ab9077ca0_0 {0 0 0};
    %vpi_call/w 4 353 "$display", "==============================================" {0 0 0};
    %end;
    .thread T_17, $final;
    .scope S_0x632ab907ba30;
T_18 ;
    %pushi/vec4 0, 0, 1;
    %store/vec4 v0x632ab907db80_0, 0, 1;
    %end;
    .thread T_18;
    .scope S_0x632ab8f95180;
T_19 ;
    %pushi/vec4 0, 0, 1;
    %store/vec4 v0x632ab9016d00_0, 0, 1;
T_19.0 ;
    %delay 5000, 0;
    %load/vec4 v0x632ab9016d00_0;
    %inv;
    %store/vec4 v0x632ab9016d00_0, 0, 1;
    %jmp T_19.0;
    %end;
    .thread T_19;
    .scope S_0x632ab8f95180;
T_20 ;
    %pushi/vec4 0, 0, 1;
    %store/vec4 v0x632ab90844b0_0, 0, 1;
    %pushi/vec4 5, 0, 32;
T_20.0 %dup/vec4;
    %pushi/vec4 0, 0, 32;
    %cmp/s;
    %jmp/1xz T_20.1, 5;
    %jmp/1 T_20.1, 4;
    %pushi/vec4 1, 0, 32;
    %sub;
    %wait E_0x632ab8fdc7a0;
    %jmp T_20.0;
T_20.1 ;
    %pop/vec4 1;
    %pushi/vec4 1, 0, 1;
    %store/vec4 v0x632ab90844b0_0, 0, 1;
    %vpi_call/w 3 73 "$display", "\000" {0 0 0};
    %vpi_call/w 3 74 "$display", "==============================================" {0 0 0};
    %vpi_call/w 3 75 "$display", "RESET RELEASED" {0 0 0};
    %vpi_call/w 3 76 "$display", "==============================================" {0 0 0};
    %vpi_call/w 3 77 "$display", "\000" {0 0 0};
    %end;
    .thread T_20;
    .scope S_0x632ab8f95180;
T_21 ;
T_21.0 ;
    %load/vec4 v0x632ab90844b0_0;
    %pushi/vec4 1, 0, 1;
    %cmp/e;
    %flag_get/vec4 4;
    %cmpi/ne 1, 0, 1;
    %jmp/0xz T_21.1, 6;
    %wait E_0x632ab8fdbdf0;
    %jmp T_21.0;
T_21.1 ;
    %wait E_0x632ab8fdc7a0;
    %vpi_call/w 3 316 "$display", "\000" {0 0 0};
    %vpi_call/w 3 317 "$display", "==============================================" {0 0 0};
    %vpi_call/w 3 318 "$display", "      AXI4-LITE BASIC TEST START" {0 0 0};
    %vpi_call/w 3 319 "$display", "==============================================" {0 0 0};
    %vpi_call/w 3 320 "$display", "\000" {0 0 0};
    %alloc S_0x632ab907f110;
    %pushi/vec4 0, 0, 32;
    %store/vec4 v0x632ab907f310_0, 0, 32;
    %pushi/vec4 305419896, 0, 32;
    %store/vec4 v0x632ab907f3f0_0, 0, 32;
    %pushi/vec4 15, 0, 4;
    %store/vec4 v0x632ab907f4d0_0, 0, 4;
    %fork TD_tb_top.master.write, S_0x632ab907f110;
    %join;
    %free S_0x632ab907f110;
    %alloc S_0x632ab907ed30;
    %pushi/vec4 0, 0, 32;
    %store/vec4 v0x632ab907ef30_0, 0, 32;
    %fork TD_tb_top.master.read, S_0x632ab907ed30;
    %join;
    %load/vec4 v0x632ab907f030_0;
    %store/vec4 v0x632ab9084b30_0, 0, 32;
    %free S_0x632ab907ed30;
    %load/vec4 v0x632ab9084b30_0;
    %cmpi/e 305419896, 0, 32;
    %jmp/0xz  T_21.2, 6;
    %vpi_call/w 3 340 "$display", "[TEST] REG0 PASS" {0 0 0};
    %jmp T_21.3;
T_21.2 ;
    %vpi_call/w 3 344 "$error", "[TEST] REG0 FAIL EXPECTED=%h ACTUAL=%h", 32'b00010010001101000101011001111000, v0x632ab9084b30_0 {0 0 0};
T_21.3 ;
    %alloc S_0x632ab907f110;
    %pushi/vec4 4, 0, 32;
    %store/vec4 v0x632ab907f310_0, 0, 32;
    %pushi/vec4 2864434397, 0, 32;
    %store/vec4 v0x632ab907f3f0_0, 0, 32;
    %pushi/vec4 15, 0, 4;
    %store/vec4 v0x632ab907f4d0_0, 0, 4;
    %fork TD_tb_top.master.write, S_0x632ab907f110;
    %join;
    %free S_0x632ab907f110;
    %alloc S_0x632ab907ed30;
    %pushi/vec4 4, 0, 32;
    %store/vec4 v0x632ab907ef30_0, 0, 32;
    %fork TD_tb_top.master.read, S_0x632ab907ed30;
    %join;
    %load/vec4 v0x632ab907f030_0;
    %store/vec4 v0x632ab9084b30_0, 0, 32;
    %free S_0x632ab907ed30;
    %load/vec4 v0x632ab9084b30_0;
    %cmpi/e 2864434397, 0, 32;
    %jmp/0xz  T_21.4, 6;
    %vpi_call/w 3 367 "$display", "[TEST] REG1 PASS" {0 0 0};
    %jmp T_21.5;
T_21.4 ;
    %vpi_call/w 3 371 "$error", "[TEST] REG1 FAIL EXPECTED=%h ACTUAL=%h", 32'b10101010101110111100110011011101, v0x632ab9084b30_0 {0 0 0};
T_21.5 ;
    %alloc S_0x632ab907f110;
    %pushi/vec4 8, 0, 32;
    %store/vec4 v0x632ab907f310_0, 0, 32;
    %pushi/vec4 3735928559, 0, 32;
    %store/vec4 v0x632ab907f3f0_0, 0, 32;
    %pushi/vec4 15, 0, 4;
    %store/vec4 v0x632ab907f4d0_0, 0, 4;
    %fork TD_tb_top.master.write, S_0x632ab907f110;
    %join;
    %free S_0x632ab907f110;
    %alloc S_0x632ab907ed30;
    %pushi/vec4 8, 0, 32;
    %store/vec4 v0x632ab907ef30_0, 0, 32;
    %fork TD_tb_top.master.read, S_0x632ab907ed30;
    %join;
    %load/vec4 v0x632ab907f030_0;
    %store/vec4 v0x632ab9084b30_0, 0, 32;
    %free S_0x632ab907ed30;
    %load/vec4 v0x632ab9084b30_0;
    %cmpi/e 3735928559, 0, 32;
    %jmp/0xz  T_21.6, 6;
    %vpi_call/w 3 394 "$display", "[TEST] REG2 PASS" {0 0 0};
    %jmp T_21.7;
T_21.6 ;
    %vpi_call/w 3 398 "$error", "[TEST] REG2 FAIL EXPECTED=%h ACTUAL=%h", 32'b11011110101011011011111011101111, v0x632ab9084b30_0 {0 0 0};
T_21.7 ;
    %alloc S_0x632ab907f110;
    %pushi/vec4 12, 0, 32;
    %store/vec4 v0x632ab907f310_0, 0, 32;
    %pushi/vec4 3405691582, 0, 32;
    %store/vec4 v0x632ab907f3f0_0, 0, 32;
    %pushi/vec4 15, 0, 4;
    %store/vec4 v0x632ab907f4d0_0, 0, 4;
    %fork TD_tb_top.master.write, S_0x632ab907f110;
    %join;
    %free S_0x632ab907f110;
    %alloc S_0x632ab907ed30;
    %pushi/vec4 12, 0, 32;
    %store/vec4 v0x632ab907ef30_0, 0, 32;
    %fork TD_tb_top.master.read, S_0x632ab907ed30;
    %join;
    %load/vec4 v0x632ab907f030_0;
    %store/vec4 v0x632ab9084b30_0, 0, 32;
    %free S_0x632ab907ed30;
    %load/vec4 v0x632ab9084b30_0;
    %cmpi/e 3405691582, 0, 32;
    %jmp/0xz  T_21.8, 6;
    %vpi_call/w 3 422 "$display", "[TEST] REG3 PASS" {0 0 0};
    %jmp T_21.9;
T_21.8 ;
    %vpi_call/w 3 426 "$error", "[TEST] REG3 FAIL EXPECTED=%h ACTUAL=%h", 32'b11001010111111101011101010111110, v0x632ab9084b30_0 {0 0 0};
T_21.9 ;
    %vpi_call/w 3 436 "$display", "\000" {0 0 0};
    %vpi_call/w 3 437 "$display", "==============================================" {0 0 0};
    %vpi_call/w 3 438 "$display", "      AXI4-LITE BASIC TEST COMPLETE" {0 0 0};
    %vpi_call/w 3 439 "$display", "==============================================" {0 0 0};
    %vpi_call/w 3 440 "$display", "\000" {0 0 0};
    %delay 50000, 0;
    %vpi_call/w 3 444 "$finish" {0 0 0};
    %end;
    .thread T_21;
    .scope S_0x632ab8f95180;
T_22 ;
    %vpi_call/w 3 455 "$dumpfile", "sim/waves/axi4_lite.vcd" {0 0 0};
    %vpi_call/w 3 457 "$dumpvars", 32'sb00000000000000000000000000000000, S_0x632ab8f95180 {0 0 0};
    %end;
    .thread T_22;
# The file index is used to find the file name in the following table.
:file_names 10;
    "N/A";
    "<interactive>";
    "-";
    "tb/tb_top.sv";
    "tb/coverage/axi4_lite_coverage.sv";
    "rtl/axi4_lite_slave.sv";
    "tb/fault_injection/axi4_lite_fault_injection.sv";
    "tb/master/axi4_lite_master.sv";
    "tb/monitor/axi4_lite_monitor.sv";
    "tb/scoreboard/axi4_lite_scoreboard.sv";
